
SetupTitle, PN-F
PrimitiveTest, I/V Sweep
TestParameter, Context.MainFrame, 4156B
TestParameter, Channel.UnitType, SMU, SMU
TestParameter, Channel.Unit, SMU1:HR, SMU2:HR
TestParameter, Channel.IName, I1, I2
TestParameter, Channel.VName, V1, V2
TestParameter, Channel.Mode, V, V
TestParameter, Channel.Func, VAR1, CONST
TestParameter, Channel.Index, 
TestParameter, Channel.Time, 
TestParameter, Measurement.Port.Unit, SMU1:HR, SMU2:HR
TestParameter, Measurement.Port.SeriesResistor, NONE, NONE
TestParameter, Measurement.Port.Filter, ON, ON
TestParameter, Measurement.Primary.Locus, Single
TestParameter, Measurement.Primary.Scale, LINEAR
TestParameter, Measurement.Primary.Start, 0
TestParameter, Measurement.Primary.Stop, 10
TestParameter, Measurement.Primary.Step, 0.2
TestParameter, Measurement.Primary.Compliance, 0.0001
TestParameter, Measurement.Primary.PowerCompliance, 0.001
TestParameter, Measurement.Aborting.Condition, STOP AT ANY ABNORMAL
TestParameter, Measurement.PostOutput.Value, START
TestParameter, Measurement.PostOutput.Retention, OFF
TestParameter, Measurement.Bias.Source, 0, 0
TestParameter, Measurement.Bias.Compliance, 0.0001, 0.005
TestParameter, Measurement.Monitor.Unit, SMU1:HR, SMU2:HR
TestParameter, Measurement.Monitor.Adc, HR ADC, HR ADC
TestParameter, Measurement.Monitor.RangingMode, LIMITED, LIMITED
TestParameter, Measurement.Monitor.RangeBoundary, 1nA, 1nA
TestParameter, Measurement.Monitor.RangeRating, BY FULL RANGE, BY FULL RANGE
TestParameter, Measurement.Monitor.RangeRatingCoeff, 50, 50
TestParameter, Measurement.Timing.Hold, 1
TestParameter, Measurement.Timing.Delay, 0.1
TestParameter, Measurement.Adc.HighResolution.AutoZero, OFF
TestParameter, Measurement.Adc.HighResolution.Mode, AUTO
TestParameter, Measurement.Adc.HighResolution.Coeff, 1
TestParameter, Measurement.Ag16440ASelector.SemiconductorRelay.Channel1, DEFAULT
TestParameter, Measurement.Ag16440ASelector.SemiconductorRelay.Channel3, DEFAULT
TestParameter, Output.Graph.Enabled, true
TestParameter, Output.Graph.XAxis.Data, V1
TestParameter, Output.Graph.XAxis.Scale, Linear
TestParameter, Output.Graph.XAxis.Left, 0
TestParameter, Output.Graph.XAxis.Right, 5
TestParameter, Output.Graph.YAxis.Data, I1
TestParameter, Output.Graph.YAxis.Scale, Linear
TestParameter, Output.Graph.YAxis.Bottom, -0.001
TestParameter, Output.Graph.YAxis.Top, 0.001
TestParameter, Output.Graph.YAxis.Group, 
TestParameter, Output.List.Data, V1, I1, V4, I4
TestParameter, AutoAnalysis.Interpolation, false
TestParameter, AutoAnalysis.Line1.Enabled, false
TestParameter, AutoAnalysis.Line1.Type, 1
TestParameter, AutoAnalysis.Line1.Fix, True
TestParameter, AutoAnalysis.Line1.YAxis, 0
TestParameter, AutoAnalysis.Line1.Point1.Type, 0
TestParameter, AutoAnalysis.Line1.Point1.XY.X, 
TestParameter, AutoAnalysis.Line1.Point1.XY.Y, 
TestParameter, AutoAnalysis.Line1.Point1.Data.Var, 
TestParameter, AutoAnalysis.Line1.Point1.Data.Condition, 
TestParameter, AutoAnalysis.Line1.Point1.Data.Start, false
TestParameter, AutoAnalysis.Line1.Point1.Data.StartVar, 
TestParameter, AutoAnalysis.Line1.Point1.Data.StartCondition, 
TestParameter, AutoAnalysis.Line1.Point2.Type, 0
TestParameter, AutoAnalysis.Line1.Point2.XY.X, 
TestParameter, AutoAnalysis.Line1.Point2.XY.Y, 
TestParameter, AutoAnalysis.Line1.Point2.Data.Var, 
TestParameter, AutoAnalysis.Line1.Point2.Data.Condition, 
TestParameter, AutoAnalysis.Line1.Point2.Data.Start, false
TestParameter, AutoAnalysis.Line1.Point2.Data.StartVar, 
TestParameter, AutoAnalysis.Line1.Point2.Data.StartCondition, 
TestParameter, AutoAnalysis.Line1.GradientExpr, 0
TestParameter, AutoAnalysis.Line2.Enabled, false
TestParameter, AutoAnalysis.Line2.Type, 1
TestParameter, AutoAnalysis.Line2.Fix, True
TestParameter, AutoAnalysis.Line2.YAxis, 0
TestParameter, AutoAnalysis.Line2.Point1.Type, 0
TestParameter, AutoAnalysis.Line2.Point1.XY.X, 
TestParameter, AutoAnalysis.Line2.Point1.XY.Y, 
TestParameter, AutoAnalysis.Line2.Point1.Data.Var, 
TestParameter, AutoAnalysis.Line2.Point1.Data.Condition, 
TestParameter, AutoAnalysis.Line2.Point1.Data.Start, false
TestParameter, AutoAnalysis.Line2.Point1.Data.StartVar, 
TestParameter, AutoAnalysis.Line2.Point1.Data.StartCondition, 
TestParameter, AutoAnalysis.Line2.Point2.Type, 0
TestParameter, AutoAnalysis.Line2.Point2.XY.X, 
TestParameter, AutoAnalysis.Line2.Point2.XY.Y, 
TestParameter, AutoAnalysis.Line2.Point2.Data.Var, 
TestParameter, AutoAnalysis.Line2.Point2.Data.Condition, 
TestParameter, AutoAnalysis.Line2.Point2.Data.Start, false
TestParameter, AutoAnalysis.Line2.Point2.Data.StartVar, 
TestParameter, AutoAnalysis.Line2.Point2.Data.StartCondition, 
TestParameter, AutoAnalysis.Line2.GradientExpr, 0
TestParameter, AutoAnalysis.Marker.Enabled, false
TestParameter, AutoAnalysis.Marker.Data.Var, 
TestParameter, AutoAnalysis.Marker.Data.Condition, 
TestParameter, AutoAnalysis.Marker.Data.Start, false
TestParameter, AutoAnalysis.Marker.Data.StartVar, 
TestParameter, AutoAnalysis.Marker.Data.StartCondition, 
MetaData, TestRecord.EntryPoint, true
MetaData, TestRecord.RecordTime, 03/12/2024 19:11:55
MetaData, TestRecord.TestTarget, 2306-1-C2-T304-F
MetaData, TestRecord.IterationIndex, 2
MetaData, TestRecord.Preservation, true
MetaData, TestRecord.Flag, 
MetaData, TestRecord.Remarks, 
MetaData, TestRecord.LinkKey, 3909fbfc-7f8a-40e5-bac2-01257ee6d20a
Dimension1, 51, 51, 51, 51
Dimension2, 1, 1, 1, 1
DataName, V1, I1, V4, I4
DataValue, 0, -3.66E-13, , 
DataValue, 0.2, -5.35E-13, , 
DataValue, 0.4, -3.0000000000000003E-13, , 
DataValue, 0.6, -2.9900000000000004E-13, , 
DataValue, 0.8, -2.24E-13, , 
DataValue, 1, -1.6100000000000002E-13, , 
DataValue, 1.2, -5.3300000000000005E-13, , 
DataValue, 1.4000000000000001, -4.12E-13, , 
DataValue, 1.6, -2.1300000000000003E-13, , 
DataValue, 1.8, -2.7400000000000004E-13, , 
DataValue, 2, -3.7000000000000004E-13, , 
DataValue, 2.2, 8.1000000000000008E-14, , 
DataValue, 2.4, -8.9000000000000012E-14, , 
DataValue, 2.6, 6.14E-13, , 
DataValue, 2.8000000000000003, 8E-13, , 
DataValue, 3, 3.5500000000000005E-13, , 
DataValue, 3.2, 9.2000000000000012E-14, , 
DataValue, 3.4, 8.3300000000000009E-13, , 
DataValue, 3.6, -1.75E-13, , 
DataValue, 3.8000000000000003, 8.7400000000000011E-13, , 
DataValue, 4, 2.46E-13, , 
DataValue, 4.2, 9.63E-13, , 
DataValue, 4.4, 8.7300000000000012E-13, , 
DataValue, 4.6000000000000005, 4.4200000000000004E-13, , 
DataValue, 4.8, -1E-13, , 
DataValue, 5, 7.79E-13, , 
DataValue, 5.2, 6.8900000000000009E-13, , 
DataValue, 5.4, 7.6700000000000006E-13, , 
DataValue, 5.6000000000000005, 6.59E-13, , 
DataValue, 5.8, 7.27E-13, , 
DataValue, 6, 1.032E-12, , 
DataValue, 6.2, 2.081E-12, , 
DataValue, 6.4, 1.4440000000000001E-12, , 
DataValue, 6.6000000000000005, 1.548E-12, , 
DataValue, 6.8, 1.7600000000000002E-12, , 
DataValue, 7, 1.994E-12, , 
DataValue, 7.2, 1.1980000000000002E-12, , 
DataValue, 7.4, 1.7250000000000002E-12, , 
DataValue, 7.6000000000000005, 1.5990000000000002E-12, , 
DataValue, 7.8, 1.765E-12, , 
DataValue, 8, 2.407E-12, , 
DataValue, 8.2, 2.377E-12, , 
DataValue, 8.4, 2.0750000000000003E-12, , 
DataValue, 8.6, 1.644E-12, , 
DataValue, 8.8, 1.3690000000000001E-12, , 
DataValue, 9, 4.878E-12, , 
DataValue, 9.2000000000000011, 2.393E-12, , 
DataValue, 9.4, 8.770000000000001E-13, , 
DataValue, 9.6, 1.4E-13, , 
DataValue, 9.8, 3.4570000000000003E-12, , 
DataValue, 10, 1.837E-12, , 