
SetupTitle, PN-F
PrimitiveTest, I/V Sweep
TestParameter, Context.MainFrame, 4156B
TestParameter, Channel.UnitType, SMU, SMU
TestParameter, Channel.Unit, SMU1:HR, SMU2:HR
TestParameter, Channel.IName, I1, I2
TestParameter, Channel.VName, V1, V2
TestParameter, Channel.Mode, V, V
TestParameter, Channel.Func, VAR1, CONST
TestParameter, Channel.Index, 
TestParameter, Channel.Time, 
TestParameter, Measurement.Port.Unit, SMU1:HR, SMU2:HR
TestParameter, Measurement.Port.SeriesResistor, NONE, NONE
TestParameter, Measurement.Port.Filter, ON, ON
TestParameter, Measurement.Primary.Locus, Single
TestParameter, Measurement.Primary.Scale, LINEAR
TestParameter, Measurement.Primary.Start, 0
TestParameter, Measurement.Primary.Stop, 10
TestParameter, Measurement.Primary.Step, 0.2
TestParameter, Measurement.Primary.Compliance, 0.0001
TestParameter, Measurement.Primary.PowerCompliance, 0.001
TestParameter, Measurement.Aborting.Condition, STOP AT ANY ABNORMAL
TestParameter, Measurement.PostOutput.Value, START
TestParameter, Measurement.PostOutput.Retention, OFF
TestParameter, Measurement.Bias.Source, 0, 0
TestParameter, Measurement.Bias.Compliance, 0.0001, 0.005
TestParameter, Measurement.Monitor.Unit, SMU1:HR, SMU2:HR
TestParameter, Measurement.Monitor.Adc, HR ADC, HR ADC
TestParameter, Measurement.Monitor.RangingMode, LIMITED, LIMITED
TestParameter, Measurement.Monitor.RangeBoundary, 1nA, 1nA
TestParameter, Measurement.Monitor.RangeRating, BY FULL RANGE, BY FULL RANGE
TestParameter, Measurement.Monitor.RangeRatingCoeff, 50, 50
TestParameter, Measurement.Timing.Hold, 1
TestParameter, Measurement.Timing.Delay, 0.1
TestParameter, Measurement.Adc.HighResolution.AutoZero, OFF
TestParameter, Measurement.Adc.HighResolution.Mode, AUTO
TestParameter, Measurement.Adc.HighResolution.Coeff, 1
TestParameter, Measurement.Ag16440ASelector.SemiconductorRelay.Channel1, DEFAULT
TestParameter, Measurement.Ag16440ASelector.SemiconductorRelay.Channel3, DEFAULT
TestParameter, Output.Graph.Enabled, true
TestParameter, Output.Graph.XAxis.Data, V1
TestParameter, Output.Graph.XAxis.Scale, Linear
TestParameter, Output.Graph.XAxis.Left, 0
TestParameter, Output.Graph.XAxis.Right, 5
TestParameter, Output.Graph.YAxis.Data, I1
TestParameter, Output.Graph.YAxis.Scale, Linear
TestParameter, Output.Graph.YAxis.Bottom, -0.001
TestParameter, Output.Graph.YAxis.Top, 0.001
TestParameter, Output.Graph.YAxis.Group, 
TestParameter, Output.List.Data, V1, I1, V4, I4
TestParameter, AutoAnalysis.Interpolation, false
TestParameter, AutoAnalysis.Line1.Enabled, false
TestParameter, AutoAnalysis.Line1.Type, 1
TestParameter, AutoAnalysis.Line1.Fix, True
TestParameter, AutoAnalysis.Line1.YAxis, 0
TestParameter, AutoAnalysis.Line1.Point1.Type, 0
TestParameter, AutoAnalysis.Line1.Point1.XY.X, 
TestParameter, AutoAnalysis.Line1.Point1.XY.Y, 
TestParameter, AutoAnalysis.Line1.Point1.Data.Var, 
TestParameter, AutoAnalysis.Line1.Point1.Data.Condition, 
TestParameter, AutoAnalysis.Line1.Point1.Data.Start, false
TestParameter, AutoAnalysis.Line1.Point1.Data.StartVar, 
TestParameter, AutoAnalysis.Line1.Point1.Data.StartCondition, 
TestParameter, AutoAnalysis.Line1.Point2.Type, 0
TestParameter, AutoAnalysis.Line1.Point2.XY.X, 
TestParameter, AutoAnalysis.Line1.Point2.XY.Y, 
TestParameter, AutoAnalysis.Line1.Point2.Data.Var, 
TestParameter, AutoAnalysis.Line1.Point2.Data.Condition, 
TestParameter, AutoAnalysis.Line1.Point2.Data.Start, false
TestParameter, AutoAnalysis.Line1.Point2.Data.StartVar, 
TestParameter, AutoAnalysis.Line1.Point2.Data.StartCondition, 
TestParameter, AutoAnalysis.Line1.GradientExpr, 0
TestParameter, AutoAnalysis.Line2.Enabled, false
TestParameter, AutoAnalysis.Line2.Type, 1
TestParameter, AutoAnalysis.Line2.Fix, True
TestParameter, AutoAnalysis.Line2.YAxis, 0
TestParameter, AutoAnalysis.Line2.Point1.Type, 0
TestParameter, AutoAnalysis.Line2.Point1.XY.X, 
TestParameter, AutoAnalysis.Line2.Point1.XY.Y, 
TestParameter, AutoAnalysis.Line2.Point1.Data.Var, 
TestParameter, AutoAnalysis.Line2.Point1.Data.Condition, 
TestParameter, AutoAnalysis.Line2.Point1.Data.Start, false
TestParameter, AutoAnalysis.Line2.Point1.Data.StartVar, 
TestParameter, AutoAnalysis.Line2.Point1.Data.StartCondition, 
TestParameter, AutoAnalysis.Line2.Point2.Type, 0
TestParameter, AutoAnalysis.Line2.Point2.XY.X, 
TestParameter, AutoAnalysis.Line2.Point2.XY.Y, 
TestParameter, AutoAnalysis.Line2.Point2.Data.Var, 
TestParameter, AutoAnalysis.Line2.Point2.Data.Condition, 
TestParameter, AutoAnalysis.Line2.Point2.Data.Start, false
TestParameter, AutoAnalysis.Line2.Point2.Data.StartVar, 
TestParameter, AutoAnalysis.Line2.Point2.Data.StartCondition, 
TestParameter, AutoAnalysis.Line2.GradientExpr, 0
TestParameter, AutoAnalysis.Marker.Enabled, false
TestParameter, AutoAnalysis.Marker.Data.Var, 
TestParameter, AutoAnalysis.Marker.Data.Condition, 
TestParameter, AutoAnalysis.Marker.Data.Start, false
TestParameter, AutoAnalysis.Marker.Data.StartVar, 
TestParameter, AutoAnalysis.Marker.Data.StartCondition, 
MetaData, TestRecord.EntryPoint, true
MetaData, TestRecord.RecordTime, 03/12/2024 19:26:10
MetaData, TestRecord.TestTarget, 2306-1-C2-T312-F
MetaData, TestRecord.IterationIndex, 1
MetaData, TestRecord.Preservation, true
MetaData, TestRecord.Flag, 
MetaData, TestRecord.Remarks, 
MetaData, TestRecord.LinkKey, 004a144a-763a-46eb-8c4c-134fdd943056
Dimension1, 51, 51, 51, 51
Dimension2, 1, 1, 1, 1
DataName, V1, I1, V4, I4
DataValue, 0, 2.8800000000000004E-13, , 
DataValue, 0.2, 2.005E-12, , 
DataValue, 0.4, 2.094E-12, , 
DataValue, 0.6, 3.0550000000000002E-12, , 
DataValue, 0.8, 3.3490000000000004E-12, , 
DataValue, 1, 3.4020000000000002E-12, , 
DataValue, 1.2, 3.928E-12, , 
DataValue, 1.4000000000000001, 5.601E-12, , 
DataValue, 1.6, 8.1160000000000014E-12, , 
DataValue, 1.8, 1.2219E-11, , 
DataValue, 2, 1.6051E-11, , 
DataValue, 2.2, 2.0677E-11, , 
DataValue, 2.4, 2.4491000000000003E-11, , 
DataValue, 2.6, 2.62E-11, , 
DataValue, 2.8000000000000003, 3.124E-11, , 
DataValue, 3, 3.3969000000000004E-11, , 
DataValue, 3.2, 4.181E-11, , 
DataValue, 3.4, 3.7844000000000004E-11, , 
DataValue, 3.6, 4.1566E-11, , 
DataValue, 3.8000000000000003, 4.5501000000000007E-11, , 
DataValue, 4, 4.6516E-11, , 
DataValue, 4.2, 5.0889E-11, , 
DataValue, 4.4, 5.5324000000000005E-11, , 
DataValue, 4.6000000000000005, 6.7043000000000008E-11, , 
DataValue, 4.8, 6.6238E-11, , 
DataValue, 5, 7.1849000000000007E-11, , 
DataValue, 5.2, 8.0015000000000008E-11, , 
DataValue, 5.4, 7.8643000000000012E-11, , 
DataValue, 5.6000000000000005, 8.6360000000000012E-11, , 
DataValue, 5.8, 9.404500000000001E-11, , 
DataValue, 6, 1.03117E-10, , 
DataValue, 6.2, 1.1089E-10, , 
DataValue, 6.4, 1.0826300000000001E-10, , 
DataValue, 6.6000000000000005, 1.21107E-10, , 
DataValue, 6.8, 1.33739E-10, , 
DataValue, 7, 1.4221600000000002E-10, , 
DataValue, 7.2, 1.5353100000000002E-10, , 
DataValue, 7.4, 1.59002E-10, , 
DataValue, 7.6000000000000005, 1.7665E-10, , 
DataValue, 7.8, 1.82668E-10, , 
DataValue, 8, 1.8728000000000002E-10, , 
DataValue, 8.2, 1.9597600000000002E-10, , 
DataValue, 8.4, 2.10025E-10, , 
DataValue, 8.6, 2.18206E-10, , 
DataValue, 8.8, 2.31501E-10, , 
DataValue, 9, 2.2939300000000002E-10, , 
DataValue, 9.2000000000000011, 2.44684E-10, , 
DataValue, 9.4, 2.50655E-10, , 
DataValue, 9.6, 2.6358000000000003E-10, , 
DataValue, 9.8, 2.8462400000000003E-10, , 
DataValue, 10, 2.9781800000000005E-10, , 