
SetupTitle, PN-F
PrimitiveTest, I/V Sweep
TestParameter, Context.MainFrame, 4156B
TestParameter, Channel.UnitType, SMU, SMU
TestParameter, Channel.Unit, SMU1:HR, SMU2:HR
TestParameter, Channel.IName, I1, I2
TestParameter, Channel.VName, V1, V2
TestParameter, Channel.Mode, V, V
TestParameter, Channel.Func, VAR1, CONST
TestParameter, Channel.Index, 
TestParameter, Channel.Time, 
TestParameter, Measurement.Port.Unit, SMU1:HR, SMU2:HR
TestParameter, Measurement.Port.SeriesResistor, NONE, NONE
TestParameter, Measurement.Port.Filter, ON, ON
TestParameter, Measurement.Primary.Locus, Single
TestParameter, Measurement.Primary.Scale, LINEAR
TestParameter, Measurement.Primary.Start, 0
TestParameter, Measurement.Primary.Stop, 10
TestParameter, Measurement.Primary.Step, 0.1
TestParameter, Measurement.Primary.Compliance, 0.0001
TestParameter, Measurement.Primary.PowerCompliance, 0.001
TestParameter, Measurement.Aborting.Condition, STOP AT ANY ABNORMAL
TestParameter, Measurement.PostOutput.Value, START
TestParameter, Measurement.PostOutput.Retention, OFF
TestParameter, Measurement.Bias.Source, 0, 0
TestParameter, Measurement.Bias.Compliance, 0.0001, 0.005
TestParameter, Measurement.Monitor.Unit, SMU1:HR, SMU2:HR
TestParameter, Measurement.Monitor.Adc, HR ADC, HR ADC
TestParameter, Measurement.Monitor.RangingMode, LIMITED, LIMITED
TestParameter, Measurement.Monitor.RangeBoundary, 1nA, 1nA
TestParameter, Measurement.Monitor.RangeRating, BY FULL RANGE, BY FULL RANGE
TestParameter, Measurement.Monitor.RangeRatingCoeff, 50, 50
TestParameter, Measurement.Timing.Hold, 1
TestParameter, Measurement.Timing.Delay, 0.1
TestParameter, Measurement.Adc.HighResolution.AutoZero, OFF
TestParameter, Measurement.Adc.HighResolution.Mode, AUTO
TestParameter, Measurement.Adc.HighResolution.Coeff, 1
TestParameter, Measurement.Ag16440ASelector.SemiconductorRelay.Channel1, DEFAULT
TestParameter, Measurement.Ag16440ASelector.SemiconductorRelay.Channel3, DEFAULT
TestParameter, Output.Graph.Enabled, true
TestParameter, Output.Graph.XAxis.Data, V1
TestParameter, Output.Graph.XAxis.Scale, Linear
TestParameter, Output.Graph.XAxis.Left, 0
TestParameter, Output.Graph.XAxis.Right, 5
TestParameter, Output.Graph.YAxis.Data, I1
TestParameter, Output.Graph.YAxis.Scale, Linear
TestParameter, Output.Graph.YAxis.Bottom, -0.001
TestParameter, Output.Graph.YAxis.Top, 0.001
TestParameter, Output.Graph.YAxis.Group, 
TestParameter, Output.List.Data, V1, I1, V4, I4
TestParameter, AutoAnalysis.Interpolation, false
TestParameter, AutoAnalysis.Line1.Enabled, false
TestParameter, AutoAnalysis.Line1.Type, 1
TestParameter, AutoAnalysis.Line1.Fix, True
TestParameter, AutoAnalysis.Line1.YAxis, 0
TestParameter, AutoAnalysis.Line1.Point1.Type, 0
TestParameter, AutoAnalysis.Line1.Point1.XY.X, 
TestParameter, AutoAnalysis.Line1.Point1.XY.Y, 
TestParameter, AutoAnalysis.Line1.Point1.Data.Var, 
TestParameter, AutoAnalysis.Line1.Point1.Data.Condition, 
TestParameter, AutoAnalysis.Line1.Point1.Data.Start, false
TestParameter, AutoAnalysis.Line1.Point1.Data.StartVar, 
TestParameter, AutoAnalysis.Line1.Point1.Data.StartCondition, 
TestParameter, AutoAnalysis.Line1.Point2.Type, 0
TestParameter, AutoAnalysis.Line1.Point2.XY.X, 
TestParameter, AutoAnalysis.Line1.Point2.XY.Y, 
TestParameter, AutoAnalysis.Line1.Point2.Data.Var, 
TestParameter, AutoAnalysis.Line1.Point2.Data.Condition, 
TestParameter, AutoAnalysis.Line1.Point2.Data.Start, false
TestParameter, AutoAnalysis.Line1.Point2.Data.StartVar, 
TestParameter, AutoAnalysis.Line1.Point2.Data.StartCondition, 
TestParameter, AutoAnalysis.Line1.GradientExpr, 0
TestParameter, AutoAnalysis.Line2.Enabled, false
TestParameter, AutoAnalysis.Line2.Type, 1
TestParameter, AutoAnalysis.Line2.Fix, True
TestParameter, AutoAnalysis.Line2.YAxis, 0
TestParameter, AutoAnalysis.Line2.Point1.Type, 0
TestParameter, AutoAnalysis.Line2.Point1.XY.X, 
TestParameter, AutoAnalysis.Line2.Point1.XY.Y, 
TestParameter, AutoAnalysis.Line2.Point1.Data.Var, 
TestParameter, AutoAnalysis.Line2.Point1.Data.Condition, 
TestParameter, AutoAnalysis.Line2.Point1.Data.Start, false
TestParameter, AutoAnalysis.Line2.Point1.Data.StartVar, 
TestParameter, AutoAnalysis.Line2.Point1.Data.StartCondition, 
TestParameter, AutoAnalysis.Line2.Point2.Type, 0
TestParameter, AutoAnalysis.Line2.Point2.XY.X, 
TestParameter, AutoAnalysis.Line2.Point2.XY.Y, 
TestParameter, AutoAnalysis.Line2.Point2.Data.Var, 
TestParameter, AutoAnalysis.Line2.Point2.Data.Condition, 
TestParameter, AutoAnalysis.Line2.Point2.Data.Start, false
TestParameter, AutoAnalysis.Line2.Point2.Data.StartVar, 
TestParameter, AutoAnalysis.Line2.Point2.Data.StartCondition, 
TestParameter, AutoAnalysis.Line2.GradientExpr, 0
TestParameter, AutoAnalysis.Marker.Enabled, false
TestParameter, AutoAnalysis.Marker.Data.Var, 
TestParameter, AutoAnalysis.Marker.Data.Condition, 
TestParameter, AutoAnalysis.Marker.Data.Start, false
TestParameter, AutoAnalysis.Marker.Data.StartVar, 
TestParameter, AutoAnalysis.Marker.Data.StartCondition, 
MetaData, TestRecord.EntryPoint, true
MetaData, TestRecord.RecordTime, 03/12/2024 18:41:17
MetaData, TestRecord.TestTarget, 2306-1-C2-T111-F
MetaData, TestRecord.IterationIndex, 1
MetaData, TestRecord.Preservation, true
MetaData, TestRecord.Flag, 
MetaData, TestRecord.Remarks, 
MetaData, TestRecord.LinkKey, 38de96f6-eaba-4db7-a6c7-45e8b1f76afa
Dimension1, 101, 101, 101, 101
Dimension2, 1, 1, 1, 1
DataName, V1, I1, V4, I4
DataValue, 0, 1.31845E-10, , 
DataValue, 0.1, 1.52912E-09, , 
DataValue, 0.2, 1.70562E-09, , 
DataValue, 0.3, 1.71025E-09, , 
DataValue, 0.4, 1.76999E-09, , 
DataValue, 0.5, 1.78894E-09, , 
DataValue, 0.6, 1.83016E-09, , 
DataValue, 0.70000000000000007, 1.85031E-09, , 
DataValue, 0.8, 1.89273E-09, , 
DataValue, 0.9, 1.95695E-09, , 
DataValue, 1, 2.00765E-09, , 
DataValue, 1.1, 2.08564E-09, , 
DataValue, 1.2, 2.18852E-09, , 
DataValue, 1.3, 2.28045E-09, , 
DataValue, 1.4000000000000001, 2.2802E-09, , 
DataValue, 1.5, 2.35518E-09, , 
DataValue, 1.6, 2.37029E-09, , 
DataValue, 1.7000000000000002, 2.41378E-09, , 
DataValue, 1.8, 2.47404E-09, , 
DataValue, 1.9000000000000001, 2.50446E-09, , 
DataValue, 2, 2.54233E-09, , 
DataValue, 2.1, 2.54542E-09, , 
DataValue, 2.2, 2.61276E-09, , 
DataValue, 2.3000000000000003, 2.63788E-09, , 
DataValue, 2.4, 2.67516E-09, , 
DataValue, 2.5, 2.72514E-09, , 
DataValue, 2.6, 2.73328E-09, , 
DataValue, 2.7, 2.78925E-09, , 
DataValue, 2.8000000000000003, 2.7961E-09, , 
DataValue, 2.9, 2.86143E-09, , 
DataValue, 3, 2.87601E-09, , 
DataValue, 3.1, 2.91875E-09, , 
DataValue, 3.2, 2.95944E-09, , 
DataValue, 3.3000000000000003, 2.99441E-09, , 
DataValue, 3.4, 3.02776E-09, , 
DataValue, 3.5, 3.06556E-09, , 
DataValue, 3.6, 3.10451E-09, , 
DataValue, 3.7, 3.15544E-09, , 
DataValue, 3.8000000000000003, 3.14769E-09, , 
DataValue, 3.9, 3.1999E-09, , 
DataValue, 4, 3.25482E-09, , 
DataValue, 4.1, 3.24933E-09, , 
DataValue, 4.2, 3.31408E-09, , 
DataValue, 4.3, 3.37181E-09, , 
DataValue, 4.4, 3.38019E-09, , 
DataValue, 4.5, 3.41019E-09, , 
DataValue, 4.6000000000000005, 3.46425E-09, , 
DataValue, 4.7, 3.52138E-09, , 
DataValue, 4.8, 3.5103999999999998E-09, , 
DataValue, 4.9, 3.5662E-09, , 
DataValue, 5, 3.62747E-09, , 
DataValue, 5.1000000000000005, 3.62324E-09, , 
DataValue, 5.2, 3.68079E-09, , 
DataValue, 5.3, 3.73154E-09, , 
DataValue, 5.4, 3.72815E-09, , 
DataValue, 5.5, 3.78965E-09, , 
DataValue, 5.6000000000000005, 3.85692E-09, , 
DataValue, 5.7, 3.84143E-09, , 
DataValue, 5.8, 3.91764E-09, , 
DataValue, 5.9, 3.93615E-09, , 
DataValue, 6, 3.98758E-09, , 
DataValue, 6.1000000000000005, 4.01968E-09, , 
DataValue, 6.2, 4.0503E-09, , 
DataValue, 6.3, 4.09362E-09, , 
DataValue, 6.4, 4.15266E-09, , 
DataValue, 6.5, 4.19837E-09, , 
DataValue, 6.6000000000000005, 4.2247E-09, , 
DataValue, 6.7, 4.26222E-09, , 
DataValue, 6.8, 4.29428E-09, , 
DataValue, 6.9, 4.32863E-09, , 
DataValue, 7, 4.39429E-09, , 
DataValue, 7.1000000000000005, 4.44788E-09, , 
DataValue, 7.2, 4.46053E-09, , 
DataValue, 7.3, 4.5147799999999996E-09, , 
DataValue, 7.4, 4.55818E-09, , 
DataValue, 7.5, 4.59259E-09, , 
DataValue, 7.6000000000000005, 4.62617E-09, , 
DataValue, 7.7, 4.68711E-09, , 
DataValue, 7.8, 4.73804E-09, , 
DataValue, 7.9, 4.79177E-09, , 
DataValue, 8, 4.79388E-09, , 
DataValue, 8.1, 4.86711E-09, , 
DataValue, 8.2, 4.91897E-09, , 
DataValue, 8.3, 4.9454E-09, , 
DataValue, 8.4, 5.00209E-09, , 
DataValue, 8.5, 5.04683E-09, , 
DataValue, 8.6, 5.11167E-09, , 
DataValue, 8.7000000000000011, 5.14143E-09, , 
DataValue, 8.8, 5.18422E-09, , 
DataValue, 8.9, 5.24717E-09, , 
DataValue, 9, 5.31562E-09, , 
DataValue, 9.1, 5.32255E-09, , 
DataValue, 9.2000000000000011, 5.39453E-09, , 
DataValue, 9.3, 5.44377E-09, , 
DataValue, 9.4, 5.49532E-09, , 
DataValue, 9.5, 5.5293E-09, , 
DataValue, 9.6, 5.59431E-09, , 
DataValue, 9.7000000000000011, 5.66009E-09, , 
DataValue, 9.8, 5.72708E-09, , 
DataValue, 9.9, 5.71871E-09, , 
DataValue, 10, 5.80424E-09, , 