
SetupTitle, PN-R
PrimitiveTest, I/V Sweep
TestParameter, Context.MainFrame, 4156B
TestParameter, Channel.UnitType, SMU, SMU
TestParameter, Channel.Unit, SMU1:HR, SMU2:HR
TestParameter, Channel.IName, I1, I2
TestParameter, Channel.VName, V1, V2
TestParameter, Channel.Mode, V, V
TestParameter, Channel.Func, VAR1, CONST
TestParameter, Channel.Index, 
TestParameter, Channel.Time, 
TestParameter, Measurement.Port.Unit, SMU1:HR, SMU2:HR
TestParameter, Measurement.Port.SeriesResistor, NONE, NONE
TestParameter, Measurement.Port.Filter, ON, ON
TestParameter, Measurement.Primary.Locus, Single
TestParameter, Measurement.Primary.Scale, LINEAR
TestParameter, Measurement.Primary.Start, 0
TestParameter, Measurement.Primary.Stop, -10
TestParameter, Measurement.Primary.Step, -0.2
TestParameter, Measurement.Primary.Compliance, 0.0001
TestParameter, Measurement.Primary.PowerCompliance, 0.001
TestParameter, Measurement.Aborting.Condition, STOP AT ANY ABNORMAL
TestParameter, Measurement.PostOutput.Value, START
TestParameter, Measurement.PostOutput.Retention, OFF
TestParameter, Measurement.Bias.Source, 0, 0
TestParameter, Measurement.Bias.Compliance, 0.0001, 0.005
TestParameter, Measurement.Monitor.Unit, SMU1:HR, SMU2:HR
TestParameter, Measurement.Monitor.Adc, HR ADC, HR ADC
TestParameter, Measurement.Monitor.RangingMode, LIMITED, LIMITED
TestParameter, Measurement.Monitor.RangeBoundary, 1nA, 1nA
TestParameter, Measurement.Monitor.RangeRating, BY FULL RANGE, BY FULL RANGE
TestParameter, Measurement.Monitor.RangeRatingCoeff, 50, 50
TestParameter, Measurement.Timing.Hold, 1
TestParameter, Measurement.Timing.Delay, 0.1
TestParameter, Measurement.Adc.HighResolution.AutoZero, OFF
TestParameter, Measurement.Adc.HighResolution.Mode, AUTO
TestParameter, Measurement.Adc.HighResolution.Coeff, 1
TestParameter, Measurement.Ag16440ASelector.SemiconductorRelay.Channel1, DEFAULT
TestParameter, Measurement.Ag16440ASelector.SemiconductorRelay.Channel3, DEFAULT
TestParameter, Output.Graph.Enabled, true
TestParameter, Output.Graph.XAxis.Data, V1
TestParameter, Output.Graph.XAxis.Scale, Linear
TestParameter, Output.Graph.XAxis.Left, 0
TestParameter, Output.Graph.XAxis.Right, 5
TestParameter, Output.Graph.YAxis.Data, I1
TestParameter, Output.Graph.YAxis.Scale, Linear
TestParameter, Output.Graph.YAxis.Bottom, -0.001
TestParameter, Output.Graph.YAxis.Top, 0.001
TestParameter, Output.Graph.YAxis.Group, 
TestParameter, Output.List.Data, V1, I1, V4, I4
TestParameter, AutoAnalysis.Interpolation, false
TestParameter, AutoAnalysis.Line1.Enabled, false
TestParameter, AutoAnalysis.Line1.Type, 1
TestParameter, AutoAnalysis.Line1.Fix, True
TestParameter, AutoAnalysis.Line1.YAxis, 0
TestParameter, AutoAnalysis.Line1.Point1.Type, 0
TestParameter, AutoAnalysis.Line1.Point1.XY.X, 
TestParameter, AutoAnalysis.Line1.Point1.XY.Y, 
TestParameter, AutoAnalysis.Line1.Point1.Data.Var, 
TestParameter, AutoAnalysis.Line1.Point1.Data.Condition, 
TestParameter, AutoAnalysis.Line1.Point1.Data.Start, false
TestParameter, AutoAnalysis.Line1.Point1.Data.StartVar, 
TestParameter, AutoAnalysis.Line1.Point1.Data.StartCondition, 
TestParameter, AutoAnalysis.Line1.Point2.Type, 0
TestParameter, AutoAnalysis.Line1.Point2.XY.X, 
TestParameter, AutoAnalysis.Line1.Point2.XY.Y, 
TestParameter, AutoAnalysis.Line1.Point2.Data.Var, 
TestParameter, AutoAnalysis.Line1.Point2.Data.Condition, 
TestParameter, AutoAnalysis.Line1.Point2.Data.Start, false
TestParameter, AutoAnalysis.Line1.Point2.Data.StartVar, 
TestParameter, AutoAnalysis.Line1.Point2.Data.StartCondition, 
TestParameter, AutoAnalysis.Line1.GradientExpr, 0
TestParameter, AutoAnalysis.Line2.Enabled, false
TestParameter, AutoAnalysis.Line2.Type, 1
TestParameter, AutoAnalysis.Line2.Fix, True
TestParameter, AutoAnalysis.Line2.YAxis, 0
TestParameter, AutoAnalysis.Line2.Point1.Type, 0
TestParameter, AutoAnalysis.Line2.Point1.XY.X, 
TestParameter, AutoAnalysis.Line2.Point1.XY.Y, 
TestParameter, AutoAnalysis.Line2.Point1.Data.Var, 
TestParameter, AutoAnalysis.Line2.Point1.Data.Condition, 
TestParameter, AutoAnalysis.Line2.Point1.Data.Start, false
TestParameter, AutoAnalysis.Line2.Point1.Data.StartVar, 
TestParameter, AutoAnalysis.Line2.Point1.Data.StartCondition, 
TestParameter, AutoAnalysis.Line2.Point2.Type, 0
TestParameter, AutoAnalysis.Line2.Point2.XY.X, 
TestParameter, AutoAnalysis.Line2.Point2.XY.Y, 
TestParameter, AutoAnalysis.Line2.Point2.Data.Var, 
TestParameter, AutoAnalysis.Line2.Point2.Data.Condition, 
TestParameter, AutoAnalysis.Line2.Point2.Data.Start, false
TestParameter, AutoAnalysis.Line2.Point2.Data.StartVar, 
TestParameter, AutoAnalysis.Line2.Point2.Data.StartCondition, 
TestParameter, AutoAnalysis.Line2.GradientExpr, 0
TestParameter, AutoAnalysis.Marker.Enabled, false
TestParameter, AutoAnalysis.Marker.Data.Var, 
TestParameter, AutoAnalysis.Marker.Data.Condition, 
TestParameter, AutoAnalysis.Marker.Data.Start, false
TestParameter, AutoAnalysis.Marker.Data.StartVar, 
TestParameter, AutoAnalysis.Marker.Data.StartCondition, 
MetaData, TestRecord.EntryPoint, true
MetaData, TestRecord.RecordTime, 03/12/2024 19:25:36
MetaData, TestRecord.TestTarget, 2306-1-C2-T312-R
MetaData, TestRecord.IterationIndex, 2
MetaData, TestRecord.Preservation, true
MetaData, TestRecord.Flag, 
MetaData, TestRecord.Remarks, 
MetaData, TestRecord.LinkKey, e0e2e77b-af82-4bac-bd9b-b8a826a2f615
Dimension1, 51, 51, 51, 51
Dimension2, 1, 1, 1, 1
DataName, V1, I1, V4, I4
DataValue, 0, 4.1400000000000005E-13, , 
DataValue, -0.2, -6.016E-12, , 
DataValue, -0.4, -8.8380000000000009E-12, , 
DataValue, -0.6, -8.23E-12, , 
DataValue, -0.8, -1.1405000000000002E-11, , 
DataValue, -1, -1.2148E-11, , 
DataValue, -1.2, -1.1482000000000001E-11, , 
DataValue, -1.4000000000000001, -1.4601000000000002E-11, , 
DataValue, -1.6, -1.5314000000000002E-11, , 
DataValue, -1.8, -1.7277E-11, , 
DataValue, -2, -2.1857000000000003E-11, , 
DataValue, -2.2, -2.1950000000000002E-11, , 
DataValue, -2.4, -2.4331E-11, , 
DataValue, -2.6, -2.6604000000000003E-11, , 
DataValue, -2.8000000000000003, -2.976E-11, , 
DataValue, -3, -3.4678000000000006E-11, , 
DataValue, -3.2, -3.8281000000000005E-11, , 
DataValue, -3.4, -4.0627000000000006E-11, , 
DataValue, -3.6, -4.4426000000000006E-11, , 
DataValue, -3.8000000000000003, -4.7298E-11, , 
DataValue, -4, -5.0577E-11, , 
DataValue, -4.2, -5.4634000000000005E-11, , 
DataValue, -4.4, -6.0933E-11, , 
DataValue, -4.6000000000000005, -6.8066000000000008E-11, , 
DataValue, -4.8, -7.3247E-11, , 
DataValue, -5, -7.9461000000000011E-11, , 
DataValue, -5.2, -8.4798E-11, , 
DataValue, -5.4, -9.0154E-11, , 
DataValue, -5.6000000000000005, -9.7839000000000012E-11, , 
DataValue, -5.8, -1.1204200000000001E-10, , 
DataValue, -6, -1.18762E-10, , 
DataValue, -6.2, -1.30918E-10, , 
DataValue, -6.4, -1.41166E-10, , 
DataValue, -6.6000000000000005, -1.5095100000000002E-10, , 
DataValue, -6.8, -1.62392E-10, , 
DataValue, -7, -1.7339200000000003E-10, , 
DataValue, -7.2, -1.8274800000000002E-10, , 
DataValue, -7.4, -1.9583100000000002E-10, , 
DataValue, -7.6000000000000005, -2.1088200000000002E-10, , 
DataValue, -7.8, -2.2427300000000002E-10, , 
DataValue, -8, -2.40273E-10, , 
DataValue, -8.2, -2.48765E-10, , 
DataValue, -8.4, -2.65517E-10, , 
DataValue, -8.6, -2.74384E-10, , 
DataValue, -8.8, -2.97694E-10, , 
DataValue, -9, -3.11241E-10, , 
DataValue, -9.2000000000000011, -3.28982E-10, , 
DataValue, -9.4, -3.4347300000000003E-10, , 
DataValue, -9.6, -3.5145800000000003E-10, , 
DataValue, -9.8, -3.6490400000000004E-10, , 
DataValue, -10, -3.74139E-10, , 