
SetupTitle, PN-R
PrimitiveTest, I/V Sweep
TestParameter, Context.MainFrame, 4156B
TestParameter, Channel.UnitType, SMU, SMU
TestParameter, Channel.Unit, SMU1:HR, SMU2:HR
TestParameter, Channel.IName, I1, I2
TestParameter, Channel.VName, V1, V2
TestParameter, Channel.Mode, V, V
TestParameter, Channel.Func, VAR1, CONST
TestParameter, Channel.Index, 
TestParameter, Channel.Time, 
TestParameter, Measurement.Port.Unit, SMU1:HR, SMU2:HR
TestParameter, Measurement.Port.SeriesResistor, NONE, NONE
TestParameter, Measurement.Port.Filter, ON, ON
TestParameter, Measurement.Primary.Locus, Single
TestParameter, Measurement.Primary.Scale, LINEAR
TestParameter, Measurement.Primary.Start, 0
TestParameter, Measurement.Primary.Stop, -10
TestParameter, Measurement.Primary.Step, -0.2
TestParameter, Measurement.Primary.Compliance, 0.0001
TestParameter, Measurement.Primary.PowerCompliance, 0.001
TestParameter, Measurement.Aborting.Condition, STOP AT ANY ABNORMAL
TestParameter, Measurement.PostOutput.Value, START
TestParameter, Measurement.PostOutput.Retention, OFF
TestParameter, Measurement.Bias.Source, 0, 0
TestParameter, Measurement.Bias.Compliance, 0.0001, 0.005
TestParameter, Measurement.Monitor.Unit, SMU1:HR, SMU2:HR
TestParameter, Measurement.Monitor.Adc, HR ADC, HR ADC
TestParameter, Measurement.Monitor.RangingMode, LIMITED, LIMITED
TestParameter, Measurement.Monitor.RangeBoundary, 1nA, 1nA
TestParameter, Measurement.Monitor.RangeRating, BY FULL RANGE, BY FULL RANGE
TestParameter, Measurement.Monitor.RangeRatingCoeff, 50, 50
TestParameter, Measurement.Timing.Hold, 1
TestParameter, Measurement.Timing.Delay, 0.1
TestParameter, Measurement.Adc.HighResolution.AutoZero, OFF
TestParameter, Measurement.Adc.HighResolution.Mode, AUTO
TestParameter, Measurement.Adc.HighResolution.Coeff, 1
TestParameter, Measurement.Ag16440ASelector.SemiconductorRelay.Channel1, DEFAULT
TestParameter, Measurement.Ag16440ASelector.SemiconductorRelay.Channel3, DEFAULT
TestParameter, Output.Graph.Enabled, true
TestParameter, Output.Graph.XAxis.Data, V1
TestParameter, Output.Graph.XAxis.Scale, Linear
TestParameter, Output.Graph.XAxis.Left, 0
TestParameter, Output.Graph.XAxis.Right, 5
TestParameter, Output.Graph.YAxis.Data, I1
TestParameter, Output.Graph.YAxis.Scale, Linear
TestParameter, Output.Graph.YAxis.Bottom, -0.001
TestParameter, Output.Graph.YAxis.Top, 0.001
TestParameter, Output.Graph.YAxis.Group, 
TestParameter, Output.List.Data, V1, I1, V4, I4
TestParameter, AutoAnalysis.Interpolation, false
TestParameter, AutoAnalysis.Line1.Enabled, false
TestParameter, AutoAnalysis.Line1.Type, 1
TestParameter, AutoAnalysis.Line1.Fix, True
TestParameter, AutoAnalysis.Line1.YAxis, 0
TestParameter, AutoAnalysis.Line1.Point1.Type, 0
TestParameter, AutoAnalysis.Line1.Point1.XY.X, 
TestParameter, AutoAnalysis.Line1.Point1.XY.Y, 
TestParameter, AutoAnalysis.Line1.Point1.Data.Var, 
TestParameter, AutoAnalysis.Line1.Point1.Data.Condition, 
TestParameter, AutoAnalysis.Line1.Point1.Data.Start, false
TestParameter, AutoAnalysis.Line1.Point1.Data.StartVar, 
TestParameter, AutoAnalysis.Line1.Point1.Data.StartCondition, 
TestParameter, AutoAnalysis.Line1.Point2.Type, 0
TestParameter, AutoAnalysis.Line1.Point2.XY.X, 
TestParameter, AutoAnalysis.Line1.Point2.XY.Y, 
TestParameter, AutoAnalysis.Line1.Point2.Data.Var, 
TestParameter, AutoAnalysis.Line1.Point2.Data.Condition, 
TestParameter, AutoAnalysis.Line1.Point2.Data.Start, false
TestParameter, AutoAnalysis.Line1.Point2.Data.StartVar, 
TestParameter, AutoAnalysis.Line1.Point2.Data.StartCondition, 
TestParameter, AutoAnalysis.Line1.GradientExpr, 0
TestParameter, AutoAnalysis.Line2.Enabled, false
TestParameter, AutoAnalysis.Line2.Type, 1
TestParameter, AutoAnalysis.Line2.Fix, True
TestParameter, AutoAnalysis.Line2.YAxis, 0
TestParameter, AutoAnalysis.Line2.Point1.Type, 0
TestParameter, AutoAnalysis.Line2.Point1.XY.X, 
TestParameter, AutoAnalysis.Line2.Point1.XY.Y, 
TestParameter, AutoAnalysis.Line2.Point1.Data.Var, 
TestParameter, AutoAnalysis.Line2.Point1.Data.Condition, 
TestParameter, AutoAnalysis.Line2.Point1.Data.Start, false
TestParameter, AutoAnalysis.Line2.Point1.Data.StartVar, 
TestParameter, AutoAnalysis.Line2.Point1.Data.StartCondition, 
TestParameter, AutoAnalysis.Line2.Point2.Type, 0
TestParameter, AutoAnalysis.Line2.Point2.XY.X, 
TestParameter, AutoAnalysis.Line2.Point2.XY.Y, 
TestParameter, AutoAnalysis.Line2.Point2.Data.Var, 
TestParameter, AutoAnalysis.Line2.Point2.Data.Condition, 
TestParameter, AutoAnalysis.Line2.Point2.Data.Start, false
TestParameter, AutoAnalysis.Line2.Point2.Data.StartVar, 
TestParameter, AutoAnalysis.Line2.Point2.Data.StartCondition, 
TestParameter, AutoAnalysis.Line2.GradientExpr, 0
TestParameter, AutoAnalysis.Marker.Enabled, false
TestParameter, AutoAnalysis.Marker.Data.Var, 
TestParameter, AutoAnalysis.Marker.Data.Condition, 
TestParameter, AutoAnalysis.Marker.Data.Start, false
TestParameter, AutoAnalysis.Marker.Data.StartVar, 
TestParameter, AutoAnalysis.Marker.Data.StartCondition, 
MetaData, TestRecord.EntryPoint, true
MetaData, TestRecord.RecordTime, 03/12/2024 19:12:21
MetaData, TestRecord.TestTarget, 2306-1-C2-T304-R
MetaData, TestRecord.IterationIndex, 1
MetaData, TestRecord.Preservation, true
MetaData, TestRecord.Flag, 
MetaData, TestRecord.Remarks, 
MetaData, TestRecord.LinkKey, fcbd3877-6584-4dfd-9731-1c8c7c166de4
Dimension1, 51, 51, 51, 51
Dimension2, 1, 1, 1, 1
DataName, V1, I1, V4, I4
DataValue, 0, -7.6500000000000007E-13, , 
DataValue, -0.2, -1.41E-13, , 
DataValue, -0.4, -9.23E-13, , 
DataValue, -0.6, -7.6700000000000006E-13, , 
DataValue, -0.8, -1.3110000000000002E-12, , 
DataValue, -1, -9.34E-13, , 
DataValue, -1.2, -9.36E-13, , 
DataValue, -1.4000000000000001, -7.6800000000000006E-13, , 
DataValue, -1.6, -9.8700000000000014E-13, , 
DataValue, -1.8, -9.44E-13, , 
DataValue, -2, -9.6000000000000015E-13, , 
DataValue, -2.2, -9.44E-13, , 
DataValue, -2.4, -1.253E-12, , 
DataValue, -2.6, -1.024E-12, , 
DataValue, -2.8000000000000003, -1.358E-12, , 
DataValue, -3, -8.48E-13, , 
DataValue, -3.2, -1.7060000000000002E-12, , 
DataValue, -3.4, -1.5570000000000001E-12, , 
DataValue, -3.6, -6.81E-13, , 
DataValue, -3.8000000000000003, -4.0800000000000003E-13, , 
DataValue, -4, -3.07E-13, , 
DataValue, -4.2, -1.0560000000000002E-12, , 
DataValue, -4.4, -1.864E-12, , 
DataValue, -4.6000000000000005, -1.5950000000000002E-12, , 
DataValue, -4.8, -1.1310000000000001E-12, , 
DataValue, -5, -2.2490000000000002E-12, , 
DataValue, -5.2, -2.3710000000000003E-12, , 
DataValue, -5.4, -6.4700000000000007E-13, , 
DataValue, -5.6000000000000005, -4.2210000000000007E-12, , 
DataValue, -5.8, -2.683E-12, , 
DataValue, -6, -3.138E-12, , 
DataValue, -6.2, -3.226E-12, , 
DataValue, -6.4, -3.263E-12, , 
DataValue, -6.6000000000000005, -3.1890000000000002E-12, , 
DataValue, -6.8, -3.5360000000000003E-12, , 
DataValue, -7, -1.3940000000000001E-12, , 
DataValue, -7.2, -3.5580000000000004E-12, , 
DataValue, -7.4, -3.5230000000000002E-12, , 
DataValue, -7.6000000000000005, -1.314E-12, , 
DataValue, -7.8, -3.0230000000000003E-12, , 
DataValue, -8, -3.4080000000000004E-12, , 
DataValue, -8.2, -2.005E-12, , 
DataValue, -8.4, -4.1030000000000006E-12, , 
DataValue, -8.6, -2.5510000000000003E-12, , 
DataValue, -8.8, -2.711E-12, , 
DataValue, -9, -4.541E-12, , 
DataValue, -9.2000000000000011, -4.593E-12, , 
DataValue, -9.4, -5.309E-12, , 
DataValue, -9.6, -4.3630000000000007E-12, , 
DataValue, -9.8, -3.934E-12, , 
DataValue, -10, -4.0430000000000004E-12, , 