
SetupTitle, PN-F
PrimitiveTest, I/V Sweep
TestParameter, Context.MainFrame, 4156B
TestParameter, Channel.UnitType, SMU, SMU
TestParameter, Channel.Unit, SMU1:HR, SMU2:HR
TestParameter, Channel.IName, I1, I2
TestParameter, Channel.VName, V1, V2
TestParameter, Channel.Mode, V, V
TestParameter, Channel.Func, VAR1, CONST
TestParameter, Channel.Index, 
TestParameter, Channel.Time, 
TestParameter, Measurement.Port.Unit, SMU1:HR, SMU2:HR
TestParameter, Measurement.Port.SeriesResistor, NONE, NONE
TestParameter, Measurement.Port.Filter, ON, ON
TestParameter, Measurement.Primary.Locus, Single
TestParameter, Measurement.Primary.Scale, LINEAR
TestParameter, Measurement.Primary.Start, 0
TestParameter, Measurement.Primary.Stop, 10
TestParameter, Measurement.Primary.Step, 0.1
TestParameter, Measurement.Primary.Compliance, 0.0001
TestParameter, Measurement.Primary.PowerCompliance, 0.001
TestParameter, Measurement.Aborting.Condition, STOP AT ANY ABNORMAL
TestParameter, Measurement.PostOutput.Value, START
TestParameter, Measurement.PostOutput.Retention, OFF
TestParameter, Measurement.Bias.Source, 0, 0
TestParameter, Measurement.Bias.Compliance, 0.0001, 0.005
TestParameter, Measurement.Monitor.Unit, SMU1:HR, SMU2:HR
TestParameter, Measurement.Monitor.Adc, HR ADC, HR ADC
TestParameter, Measurement.Monitor.RangingMode, LIMITED, LIMITED
TestParameter, Measurement.Monitor.RangeBoundary, 1nA, 1nA
TestParameter, Measurement.Monitor.RangeRating, BY FULL RANGE, BY FULL RANGE
TestParameter, Measurement.Monitor.RangeRatingCoeff, 50, 50
TestParameter, Measurement.Timing.Hold, 1
TestParameter, Measurement.Timing.Delay, 0.1
TestParameter, Measurement.Adc.HighResolution.AutoZero, OFF
TestParameter, Measurement.Adc.HighResolution.Mode, AUTO
TestParameter, Measurement.Adc.HighResolution.Coeff, 1
TestParameter, Measurement.Ag16440ASelector.SemiconductorRelay.Channel1, DEFAULT
TestParameter, Measurement.Ag16440ASelector.SemiconductorRelay.Channel3, DEFAULT
TestParameter, Output.Graph.Enabled, true
TestParameter, Output.Graph.XAxis.Data, V1
TestParameter, Output.Graph.XAxis.Scale, Linear
TestParameter, Output.Graph.XAxis.Left, 0
TestParameter, Output.Graph.XAxis.Right, 5
TestParameter, Output.Graph.YAxis.Data, I1
TestParameter, Output.Graph.YAxis.Scale, Linear
TestParameter, Output.Graph.YAxis.Bottom, -0.001
TestParameter, Output.Graph.YAxis.Top, 0.001
TestParameter, Output.Graph.YAxis.Group, 
TestParameter, Output.List.Data, V1, I1, V4, I4
TestParameter, AutoAnalysis.Interpolation, false
TestParameter, AutoAnalysis.Line1.Enabled, false
TestParameter, AutoAnalysis.Line1.Type, 1
TestParameter, AutoAnalysis.Line1.Fix, True
TestParameter, AutoAnalysis.Line1.YAxis, 0
TestParameter, AutoAnalysis.Line1.Point1.Type, 0
TestParameter, AutoAnalysis.Line1.Point1.XY.X, 
TestParameter, AutoAnalysis.Line1.Point1.XY.Y, 
TestParameter, AutoAnalysis.Line1.Point1.Data.Var, 
TestParameter, AutoAnalysis.Line1.Point1.Data.Condition, 
TestParameter, AutoAnalysis.Line1.Point1.Data.Start, false
TestParameter, AutoAnalysis.Line1.Point1.Data.StartVar, 
TestParameter, AutoAnalysis.Line1.Point1.Data.StartCondition, 
TestParameter, AutoAnalysis.Line1.Point2.Type, 0
TestParameter, AutoAnalysis.Line1.Point2.XY.X, 
TestParameter, AutoAnalysis.Line1.Point2.XY.Y, 
TestParameter, AutoAnalysis.Line1.Point2.Data.Var, 
TestParameter, AutoAnalysis.Line1.Point2.Data.Condition, 
TestParameter, AutoAnalysis.Line1.Point2.Data.Start, false
TestParameter, AutoAnalysis.Line1.Point2.Data.StartVar, 
TestParameter, AutoAnalysis.Line1.Point2.Data.StartCondition, 
TestParameter, AutoAnalysis.Line1.GradientExpr, 0
TestParameter, AutoAnalysis.Line2.Enabled, false
TestParameter, AutoAnalysis.Line2.Type, 1
TestParameter, AutoAnalysis.Line2.Fix, True
TestParameter, AutoAnalysis.Line2.YAxis, 0
TestParameter, AutoAnalysis.Line2.Point1.Type, 0
TestParameter, AutoAnalysis.Line2.Point1.XY.X, 
TestParameter, AutoAnalysis.Line2.Point1.XY.Y, 
TestParameter, AutoAnalysis.Line2.Point1.Data.Var, 
TestParameter, AutoAnalysis.Line2.Point1.Data.Condition, 
TestParameter, AutoAnalysis.Line2.Point1.Data.Start, false
TestParameter, AutoAnalysis.Line2.Point1.Data.StartVar, 
TestParameter, AutoAnalysis.Line2.Point1.Data.StartCondition, 
TestParameter, AutoAnalysis.Line2.Point2.Type, 0
TestParameter, AutoAnalysis.Line2.Point2.XY.X, 
TestParameter, AutoAnalysis.Line2.Point2.XY.Y, 
TestParameter, AutoAnalysis.Line2.Point2.Data.Var, 
TestParameter, AutoAnalysis.Line2.Point2.Data.Condition, 
TestParameter, AutoAnalysis.Line2.Point2.Data.Start, false
TestParameter, AutoAnalysis.Line2.Point2.Data.StartVar, 
TestParameter, AutoAnalysis.Line2.Point2.Data.StartCondition, 
TestParameter, AutoAnalysis.Line2.GradientExpr, 0
TestParameter, AutoAnalysis.Marker.Enabled, false
TestParameter, AutoAnalysis.Marker.Data.Var, 
TestParameter, AutoAnalysis.Marker.Data.Condition, 
TestParameter, AutoAnalysis.Marker.Data.Start, false
TestParameter, AutoAnalysis.Marker.Data.StartVar, 
TestParameter, AutoAnalysis.Marker.Data.StartCondition, 
MetaData, TestRecord.EntryPoint, true
MetaData, TestRecord.RecordTime, 03/04/2024 15:44:50
MetaData, TestRecord.TestTarget, 2306-1-C1-T603-F
MetaData, TestRecord.IterationIndex, 1
MetaData, TestRecord.Preservation, true
MetaData, TestRecord.Flag, 
MetaData, TestRecord.Remarks, 
MetaData, TestRecord.LinkKey, 9794a855-2324-4381-ab12-9057c5c217dc
Dimension1, 101, 101, 101, 101
Dimension2, 1, 1, 1, 1
DataName, V1, I1, V4, I4
DataValue, 0, 1.6925000000000002E-11, , 
DataValue, 0.1, 3.1936900000000005E-10, , 
DataValue, 0.2, 4.8364E-10, , 
DataValue, 0.3, 5.9099E-10, , 
DataValue, 0.4, 6.5342E-10, , 
DataValue, 0.5, 7.3907E-10, , 
DataValue, 0.6, 8.4351E-10, , 
DataValue, 0.70000000000000007, 9.7226E-10, , 
DataValue, 0.8, 1.0519E-09, , 
DataValue, 0.9, 1.23206E-09, , 
DataValue, 1, 1.3702E-09, , 
DataValue, 1.1, 1.4154E-09, , 
DataValue, 1.2, 1.60799E-09, , 
DataValue, 1.3, 1.77506E-09, , 
DataValue, 1.4000000000000001, 2.01054E-09, , 
DataValue, 1.5, 2.21952E-09, , 
DataValue, 1.6, 2.359E-09, , 
DataValue, 1.7000000000000002, 2.52245E-09, , 
DataValue, 1.8, 2.74486E-09, , 
DataValue, 1.9000000000000001, 2.95831E-09, , 
DataValue, 2, 3.0591E-09, , 
DataValue, 2.1, 3.2466999999999996E-09, , 
DataValue, 2.2, 3.3902999999999998E-09, , 
DataValue, 2.3000000000000003, 3.6741999999999996E-09, , 
DataValue, 2.4, 3.6873999999999995E-09, , 
DataValue, 2.5, 3.9445E-09, , 
DataValue, 2.6, 4.0768999999999994E-09, , 
DataValue, 2.7, 4.2701999999999996E-09, , 
DataValue, 2.8000000000000003, 4.5357999999999992E-09, , 
DataValue, 2.9, 4.6361E-09, , 
DataValue, 3, 4.9366999999999993E-09, , 
DataValue, 3.1, 5.1029999999999994E-09, , 
DataValue, 3.2, 5.4371999999999994E-09, , 
DataValue, 3.3000000000000003, 5.5071E-09, , 
DataValue, 3.4, 5.7348E-09, , 
DataValue, 3.5, 6.1176E-09, , 
DataValue, 3.6, 6.0956999999999991E-09, , 
DataValue, 3.7, 6.4543999999999995E-09, , 
DataValue, 3.8000000000000003, 6.8065E-09, , 
DataValue, 3.9, 6.9605999999999993E-09, , 
DataValue, 4, 7.1007999999999993E-09, , 
DataValue, 4.1, 7.6678999999999991E-09, , 
DataValue, 4.2, 7.811599999999999E-09, , 
DataValue, 4.3, 7.932E-09, , 
DataValue, 4.4, 8.53E-09, , 
DataValue, 4.5, 8.7788E-09, , 
DataValue, 4.6000000000000005, 8.8413E-09, , 
DataValue, 4.7, 9.6718999999999984E-09, , 
DataValue, 4.8, 9.633299999999999E-09, , 
DataValue, 4.9, 9.7754999999999988E-09, , 
DataValue, 5, 1.04825E-08, , 
DataValue, 5.1000000000000005, 1.0721699999999999E-08, , 
DataValue, 5.2, 1.0682899999999998E-08, , 
DataValue, 5.3, 1.1672799999999999E-08, , 
DataValue, 5.4, 1.1874999999999999E-08, , 
DataValue, 5.5, 1.2222399999999999E-08, , 
DataValue, 5.6000000000000005, 1.2845299999999998E-08, , 
DataValue, 5.7, 1.3244699999999999E-08, , 
DataValue, 5.8, 1.3172199999999998E-08, , 
DataValue, 5.9, 1.4063399999999998E-08, , 
DataValue, 6, 1.44624E-08, , 
DataValue, 6.1000000000000005, 1.4914199999999998E-08, , 
DataValue, 6.2, 1.5683099999999998E-08, , 
DataValue, 6.3, 1.6257599999999997E-08, , 
DataValue, 6.4, 1.62596E-08, , 
DataValue, 6.5, 1.68379E-08, , 
DataValue, 6.6000000000000005, 1.7684799999999998E-08, , 
DataValue, 6.7, 1.7994399999999997E-08, , 
DataValue, 6.8, 1.8597599999999997E-08, , 
DataValue, 6.9, 1.9282199999999998E-08, , 
DataValue, 7, 1.97379E-08, , 
DataValue, 7.1000000000000005, 2.06517E-08, , 
DataValue, 7.2, 2.08953E-08, , 
DataValue, 7.3, 2.2397899999999998E-08, , 
DataValue, 7.4, 2.27459E-08, , 
DataValue, 7.5, 2.32047E-08, , 
DataValue, 7.6000000000000005, 2.3996899999999998E-08, , 
DataValue, 7.7, 2.4802099999999998E-08, , 
DataValue, 7.8, 2.5608499999999997E-08, , 
DataValue, 7.9, 2.6385599999999997E-08, , 
DataValue, 8, 2.6882399999999997E-08, , 
DataValue, 8.1, 2.8143299999999996E-08, , 
DataValue, 8.2, 2.9581299999999998E-08, , 
DataValue, 8.3, 2.9781899999999996E-08, , 
DataValue, 8.4, 3.03756E-08, , 
DataValue, 8.5, 3.1916999999999994E-08, , 
DataValue, 8.6, 3.2279899999999996E-08, , 
DataValue, 8.7000000000000011, 3.36676E-08, , 
DataValue, 8.8, 3.4036499999999995E-08, , 
DataValue, 8.9, 3.54702E-08, , 
DataValue, 9, 3.6403299999999995E-08, , 
DataValue, 9.1, 3.6865399999999995E-08, , 
DataValue, 9.2000000000000011, 3.87458E-08, , 
DataValue, 9.3, 3.9687799999999994E-08, , 
DataValue, 9.4, 4.05641E-08, , 
DataValue, 9.5, 4.2046399999999993E-08, , 
DataValue, 9.6, 4.2964599999999993E-08, , 
DataValue, 9.7000000000000011, 4.41481E-08, , 
DataValue, 9.8, 4.5305999999999996E-08, , 
DataValue, 9.9, 4.6772199999999994E-08, , 
DataValue, 10, 4.7727999999999996E-08, , 