
SetupTitle, PN-F
PrimitiveTest, I/V Sweep
TestParameter, Context.MainFrame, 4156B
TestParameter, Channel.UnitType, SMU, SMU
TestParameter, Channel.Unit, SMU1:HR, SMU2:HR
TestParameter, Channel.IName, I1, I2
TestParameter, Channel.VName, V1, V2
TestParameter, Channel.Mode, V, V
TestParameter, Channel.Func, VAR1, CONST
TestParameter, Channel.Index, 
TestParameter, Channel.Time, 
TestParameter, Measurement.Port.Unit, SMU1:HR, SMU2:HR
TestParameter, Measurement.Port.SeriesResistor, NONE, NONE
TestParameter, Measurement.Port.Filter, ON, ON
TestParameter, Measurement.Primary.Locus, Single
TestParameter, Measurement.Primary.Scale, LINEAR
TestParameter, Measurement.Primary.Start, 0
TestParameter, Measurement.Primary.Stop, 10
TestParameter, Measurement.Primary.Step, 0.1
TestParameter, Measurement.Primary.Compliance, 0.0001
TestParameter, Measurement.Primary.PowerCompliance, 0.001
TestParameter, Measurement.Aborting.Condition, STOP AT ANY ABNORMAL
TestParameter, Measurement.PostOutput.Value, START
TestParameter, Measurement.PostOutput.Retention, OFF
TestParameter, Measurement.Bias.Source, 0, 0
TestParameter, Measurement.Bias.Compliance, 0.0001, 0.005
TestParameter, Measurement.Monitor.Unit, SMU1:HR, SMU2:HR
TestParameter, Measurement.Monitor.Adc, HR ADC, HR ADC
TestParameter, Measurement.Monitor.RangingMode, LIMITED, LIMITED
TestParameter, Measurement.Monitor.RangeBoundary, 1nA, 1nA
TestParameter, Measurement.Monitor.RangeRating, BY FULL RANGE, BY FULL RANGE
TestParameter, Measurement.Monitor.RangeRatingCoeff, 50, 50
TestParameter, Measurement.Timing.Hold, 1
TestParameter, Measurement.Timing.Delay, 0.1
TestParameter, Measurement.Adc.HighResolution.AutoZero, OFF
TestParameter, Measurement.Adc.HighResolution.Mode, AUTO
TestParameter, Measurement.Adc.HighResolution.Coeff, 1
TestParameter, Measurement.Ag16440ASelector.SemiconductorRelay.Channel1, DEFAULT
TestParameter, Measurement.Ag16440ASelector.SemiconductorRelay.Channel3, DEFAULT
TestParameter, Output.Graph.Enabled, true
TestParameter, Output.Graph.XAxis.Data, V1
TestParameter, Output.Graph.XAxis.Scale, Linear
TestParameter, Output.Graph.XAxis.Left, 0
TestParameter, Output.Graph.XAxis.Right, 5
TestParameter, Output.Graph.YAxis.Data, I1
TestParameter, Output.Graph.YAxis.Scale, Linear
TestParameter, Output.Graph.YAxis.Bottom, -0.001
TestParameter, Output.Graph.YAxis.Top, 0.001
TestParameter, Output.Graph.YAxis.Group, 
TestParameter, Output.List.Data, V1, I1, V4, I4
TestParameter, AutoAnalysis.Interpolation, false
TestParameter, AutoAnalysis.Line1.Enabled, false
TestParameter, AutoAnalysis.Line1.Type, 1
TestParameter, AutoAnalysis.Line1.Fix, True
TestParameter, AutoAnalysis.Line1.YAxis, 0
TestParameter, AutoAnalysis.Line1.Point1.Type, 0
TestParameter, AutoAnalysis.Line1.Point1.XY.X, 
TestParameter, AutoAnalysis.Line1.Point1.XY.Y, 
TestParameter, AutoAnalysis.Line1.Point1.Data.Var, 
TestParameter, AutoAnalysis.Line1.Point1.Data.Condition, 
TestParameter, AutoAnalysis.Line1.Point1.Data.Start, false
TestParameter, AutoAnalysis.Line1.Point1.Data.StartVar, 
TestParameter, AutoAnalysis.Line1.Point1.Data.StartCondition, 
TestParameter, AutoAnalysis.Line1.Point2.Type, 0
TestParameter, AutoAnalysis.Line1.Point2.XY.X, 
TestParameter, AutoAnalysis.Line1.Point2.XY.Y, 
TestParameter, AutoAnalysis.Line1.Point2.Data.Var, 
TestParameter, AutoAnalysis.Line1.Point2.Data.Condition, 
TestParameter, AutoAnalysis.Line1.Point2.Data.Start, false
TestParameter, AutoAnalysis.Line1.Point2.Data.StartVar, 
TestParameter, AutoAnalysis.Line1.Point2.Data.StartCondition, 
TestParameter, AutoAnalysis.Line1.GradientExpr, 0
TestParameter, AutoAnalysis.Line2.Enabled, false
TestParameter, AutoAnalysis.Line2.Type, 1
TestParameter, AutoAnalysis.Line2.Fix, True
TestParameter, AutoAnalysis.Line2.YAxis, 0
TestParameter, AutoAnalysis.Line2.Point1.Type, 0
TestParameter, AutoAnalysis.Line2.Point1.XY.X, 
TestParameter, AutoAnalysis.Line2.Point1.XY.Y, 
TestParameter, AutoAnalysis.Line2.Point1.Data.Var, 
TestParameter, AutoAnalysis.Line2.Point1.Data.Condition, 
TestParameter, AutoAnalysis.Line2.Point1.Data.Start, false
TestParameter, AutoAnalysis.Line2.Point1.Data.StartVar, 
TestParameter, AutoAnalysis.Line2.Point1.Data.StartCondition, 
TestParameter, AutoAnalysis.Line2.Point2.Type, 0
TestParameter, AutoAnalysis.Line2.Point2.XY.X, 
TestParameter, AutoAnalysis.Line2.Point2.XY.Y, 
TestParameter, AutoAnalysis.Line2.Point2.Data.Var, 
TestParameter, AutoAnalysis.Line2.Point2.Data.Condition, 
TestParameter, AutoAnalysis.Line2.Point2.Data.Start, false
TestParameter, AutoAnalysis.Line2.Point2.Data.StartVar, 
TestParameter, AutoAnalysis.Line2.Point2.Data.StartCondition, 
TestParameter, AutoAnalysis.Line2.GradientExpr, 0
TestParameter, AutoAnalysis.Marker.Enabled, false
TestParameter, AutoAnalysis.Marker.Data.Var, 
TestParameter, AutoAnalysis.Marker.Data.Condition, 
TestParameter, AutoAnalysis.Marker.Data.Start, false
TestParameter, AutoAnalysis.Marker.Data.StartVar, 
TestParameter, AutoAnalysis.Marker.Data.StartCondition, 
MetaData, TestRecord.EntryPoint, true
MetaData, TestRecord.RecordTime, 03/12/2024 18:25:20
MetaData, TestRecord.TestTarget, 2306-1-C2-T101-F
MetaData, TestRecord.IterationIndex, 1
MetaData, TestRecord.Preservation, true
MetaData, TestRecord.Flag, 
MetaData, TestRecord.Remarks, 
MetaData, TestRecord.LinkKey, 8881df28-7b9f-447f-a6d9-734b6ac21f0d
Dimension1, 101, 101, 101, 101
Dimension2, 1, 1, 1, 1
DataName, V1, I1, V4, I4
DataValue, 0, 1.5000000000000002E-14, , 
DataValue, 0.1, 1E-15, , 
DataValue, 0.2, 6.0000000000000005E-15, , 
DataValue, 0.3, 9.0000000000000011E-15, , 
DataValue, 0.4, 6.0000000000000005E-15, , 
DataValue, 0.5, -1.3000000000000001E-14, , 
DataValue, 0.6, 2.6000000000000003E-14, , 
DataValue, 0.70000000000000007, 1.2000000000000001E-14, , 
DataValue, 0.8, 4E-15, , 
DataValue, 0.9, 2.2E-14, , 
DataValue, 1, 1.8000000000000002E-14, , 
DataValue, 1.1, 2E-15, , 
DataValue, 1.2, 5.0000000000000008E-15, , 
DataValue, 1.3, 6.0000000000000005E-15, , 
DataValue, 1.4000000000000001, -4E-15, , 
DataValue, 1.5, 2.3000000000000003E-14, , 
DataValue, 1.6, 9.0000000000000011E-15, , 
DataValue, 1.7000000000000002, 1.0000000000000002E-14, , 
DataValue, 1.8, 7E-15, , 
DataValue, 1.9000000000000001, 4.4E-14, , 
DataValue, 2, 2.7000000000000002E-14, , 
DataValue, 2.1, -3.0000000000000002E-15, , 
DataValue, 2.2, 2.3000000000000003E-14, , 
DataValue, 2.3000000000000003, 3.1E-14, , 
DataValue, 2.4, -5.0000000000000008E-15, , 
DataValue, 2.5, 1.1E-14, , 
DataValue, 2.6, 8E-15, , 
DataValue, 2.7, 1.5000000000000002E-14, , 
DataValue, 2.8000000000000003, 1.3000000000000001E-14, , 
DataValue, 2.9, 2.0000000000000003E-14, , 
DataValue, 3, 7E-15, , 
DataValue, 3.1, 2.2E-14, , 
DataValue, 3.2, 2.2E-14, , 
DataValue, 3.3000000000000003, 2.2E-14, , 
DataValue, 3.4, 2.2E-14, , 
DataValue, 3.5, 5.0000000000000008E-15, , 
DataValue, 3.6, 1.9E-14, , 
DataValue, 3.7, 1E-15, , 
DataValue, 3.8000000000000003, 3.3000000000000005E-14, , 
DataValue, 3.9, 3.4E-14, , 
DataValue, 4, 3.0000000000000002E-15, , 
DataValue, 4.1, 1.4E-14, , 
DataValue, 4.2, 2.1000000000000002E-14, , 
DataValue, 4.3, 7E-15, , 
DataValue, 4.4, -4E-15, , 
DataValue, 4.5, -2E-15, , 
DataValue, 4.6000000000000005, 3.2E-14, , 
DataValue, 4.7, 2.0000000000000003E-14, , 
DataValue, 4.8, 8E-15, , 
DataValue, 4.9, 9.0000000000000011E-15, , 
DataValue, 5, 8E-15, , 
DataValue, 5.1000000000000005, 2.4000000000000002E-14, , 
DataValue, 5.2, 2.0000000000000003E-14, , 
DataValue, 5.3, 3.0000000000000002E-15, , 
DataValue, 5.4, 3.0000000000000002E-15, , 
DataValue, 5.5, 9.0000000000000011E-15, , 
DataValue, 5.6000000000000005, 1.7E-14, , 
DataValue, 5.7, 2.6000000000000003E-14, , 
DataValue, 5.8, -5.0000000000000008E-15, , 
DataValue, 5.9, 1.5000000000000002E-14, , 
DataValue, 6, 1.1E-14, , 
DataValue, 6.1000000000000005, 2.2E-14, , 
DataValue, 6.2, 1.3000000000000001E-14, , 
DataValue, 6.3, 1.2000000000000001E-14, , 
DataValue, 6.4, 1.9E-14, , 
DataValue, 6.5, 1.4E-14, , 
DataValue, 6.6000000000000005, 8E-15, , 
DataValue, 6.7, 7E-15, , 
DataValue, 6.8, 9.0000000000000011E-15, , 
DataValue, 6.9, 1.5000000000000002E-14, , 
DataValue, 7, 2.5E-14, , 
DataValue, 7.1000000000000005, 1.0000000000000002E-14, , 
DataValue, 7.2, -1E-15, , 
DataValue, 7.3, 6.0000000000000005E-15, , 
DataValue, 7.4, 3.3000000000000005E-14, , 
DataValue, 7.5, 3.3000000000000005E-14, , 
DataValue, 7.6000000000000005, -2E-15, , 
DataValue, 7.7, 2.3000000000000003E-14, , 
DataValue, 7.8, 1.9E-14, , 
DataValue, 7.9, 1.8000000000000002E-14, , 
DataValue, 8, 2.2E-14, , 
DataValue, 8.1, 2.8E-14, , 
DataValue, 8.2, 1.2000000000000001E-14, , 
DataValue, 8.3, -6.0000000000000005E-15, , 
DataValue, 8.4, -3.0000000000000002E-15, , 
DataValue, 8.5, 1.1E-14, , 
DataValue, 8.6, 1.6E-14, , 
DataValue, 8.7000000000000011, 2.2E-14, , 
DataValue, 8.8, 3.3000000000000005E-14, , 
DataValue, 8.9, 6.0000000000000005E-15, , 
DataValue, 9, 3.2E-14, , 
DataValue, 9.1, 1.6E-14, , 
DataValue, 9.2000000000000011, 2.0000000000000003E-14, , 
DataValue, 9.3, 1.6E-14, , 
DataValue, 9.4, 3.6000000000000004E-14, , 
DataValue, 9.5, 1.0000000000000002E-14, , 
DataValue, 9.6, 3.8E-14, , 
DataValue, 9.7000000000000011, 2.0000000000000003E-14, , 
DataValue, 9.8, 2.4000000000000002E-14, , 
DataValue, 9.9, 1.7E-14, , 
DataValue, 10, 2.0000000000000003E-14, , 