
SetupTitle, PN-F
PrimitiveTest, I/V Sweep
TestParameter, Context.MainFrame, 4156B
TestParameter, Channel.UnitType, SMU, SMU
TestParameter, Channel.Unit, SMU1:HR, SMU2:HR
TestParameter, Channel.IName, I1, I2
TestParameter, Channel.VName, V1, V2
TestParameter, Channel.Mode, V, V
TestParameter, Channel.Func, VAR1, CONST
TestParameter, Channel.Index, 
TestParameter, Channel.Time, 
TestParameter, Measurement.Port.Unit, SMU1:HR, SMU2:HR
TestParameter, Measurement.Port.SeriesResistor, NONE, NONE
TestParameter, Measurement.Port.Filter, ON, ON
TestParameter, Measurement.Primary.Locus, Single
TestParameter, Measurement.Primary.Scale, LINEAR
TestParameter, Measurement.Primary.Start, 0
TestParameter, Measurement.Primary.Stop, 10
TestParameter, Measurement.Primary.Step, 0.1
TestParameter, Measurement.Primary.Compliance, 0.0001
TestParameter, Measurement.Primary.PowerCompliance, 0.001
TestParameter, Measurement.Aborting.Condition, STOP AT ANY ABNORMAL
TestParameter, Measurement.PostOutput.Value, START
TestParameter, Measurement.PostOutput.Retention, OFF
TestParameter, Measurement.Bias.Source, 0, 0
TestParameter, Measurement.Bias.Compliance, 0.0001, 0.005
TestParameter, Measurement.Monitor.Unit, SMU1:HR, SMU2:HR
TestParameter, Measurement.Monitor.Adc, HR ADC, HR ADC
TestParameter, Measurement.Monitor.RangingMode, LIMITED, LIMITED
TestParameter, Measurement.Monitor.RangeBoundary, 1nA, 1nA
TestParameter, Measurement.Monitor.RangeRating, BY FULL RANGE, BY FULL RANGE
TestParameter, Measurement.Monitor.RangeRatingCoeff, 50, 50
TestParameter, Measurement.Timing.Hold, 1
TestParameter, Measurement.Timing.Delay, 0.1
TestParameter, Measurement.Adc.HighResolution.AutoZero, OFF
TestParameter, Measurement.Adc.HighResolution.Mode, AUTO
TestParameter, Measurement.Adc.HighResolution.Coeff, 1
TestParameter, Measurement.Ag16440ASelector.SemiconductorRelay.Channel1, DEFAULT
TestParameter, Measurement.Ag16440ASelector.SemiconductorRelay.Channel3, DEFAULT
TestParameter, Output.Graph.Enabled, true
TestParameter, Output.Graph.XAxis.Data, V1
TestParameter, Output.Graph.XAxis.Scale, Linear
TestParameter, Output.Graph.XAxis.Left, 0
TestParameter, Output.Graph.XAxis.Right, 5
TestParameter, Output.Graph.YAxis.Data, I1
TestParameter, Output.Graph.YAxis.Scale, Linear
TestParameter, Output.Graph.YAxis.Bottom, -0.001
TestParameter, Output.Graph.YAxis.Top, 0.001
TestParameter, Output.Graph.YAxis.Group, 
TestParameter, Output.List.Data, V1, I1, V4, I4
TestParameter, AutoAnalysis.Interpolation, false
TestParameter, AutoAnalysis.Line1.Enabled, false
TestParameter, AutoAnalysis.Line1.Type, 1
TestParameter, AutoAnalysis.Line1.Fix, True
TestParameter, AutoAnalysis.Line1.YAxis, 0
TestParameter, AutoAnalysis.Line1.Point1.Type, 0
TestParameter, AutoAnalysis.Line1.Point1.XY.X, 
TestParameter, AutoAnalysis.Line1.Point1.XY.Y, 
TestParameter, AutoAnalysis.Line1.Point1.Data.Var, 
TestParameter, AutoAnalysis.Line1.Point1.Data.Condition, 
TestParameter, AutoAnalysis.Line1.Point1.Data.Start, false
TestParameter, AutoAnalysis.Line1.Point1.Data.StartVar, 
TestParameter, AutoAnalysis.Line1.Point1.Data.StartCondition, 
TestParameter, AutoAnalysis.Line1.Point2.Type, 0
TestParameter, AutoAnalysis.Line1.Point2.XY.X, 
TestParameter, AutoAnalysis.Line1.Point2.XY.Y, 
TestParameter, AutoAnalysis.Line1.Point2.Data.Var, 
TestParameter, AutoAnalysis.Line1.Point2.Data.Condition, 
TestParameter, AutoAnalysis.Line1.Point2.Data.Start, false
TestParameter, AutoAnalysis.Line1.Point2.Data.StartVar, 
TestParameter, AutoAnalysis.Line1.Point2.Data.StartCondition, 
TestParameter, AutoAnalysis.Line1.GradientExpr, 0
TestParameter, AutoAnalysis.Line2.Enabled, false
TestParameter, AutoAnalysis.Line2.Type, 1
TestParameter, AutoAnalysis.Line2.Fix, True
TestParameter, AutoAnalysis.Line2.YAxis, 0
TestParameter, AutoAnalysis.Line2.Point1.Type, 0
TestParameter, AutoAnalysis.Line2.Point1.XY.X, 
TestParameter, AutoAnalysis.Line2.Point1.XY.Y, 
TestParameter, AutoAnalysis.Line2.Point1.Data.Var, 
TestParameter, AutoAnalysis.Line2.Point1.Data.Condition, 
TestParameter, AutoAnalysis.Line2.Point1.Data.Start, false
TestParameter, AutoAnalysis.Line2.Point1.Data.StartVar, 
TestParameter, AutoAnalysis.Line2.Point1.Data.StartCondition, 
TestParameter, AutoAnalysis.Line2.Point2.Type, 0
TestParameter, AutoAnalysis.Line2.Point2.XY.X, 
TestParameter, AutoAnalysis.Line2.Point2.XY.Y, 
TestParameter, AutoAnalysis.Line2.Point2.Data.Var, 
TestParameter, AutoAnalysis.Line2.Point2.Data.Condition, 
TestParameter, AutoAnalysis.Line2.Point2.Data.Start, false
TestParameter, AutoAnalysis.Line2.Point2.Data.StartVar, 
TestParameter, AutoAnalysis.Line2.Point2.Data.StartCondition, 
TestParameter, AutoAnalysis.Line2.GradientExpr, 0
TestParameter, AutoAnalysis.Marker.Enabled, false
TestParameter, AutoAnalysis.Marker.Data.Var, 
TestParameter, AutoAnalysis.Marker.Data.Condition, 
TestParameter, AutoAnalysis.Marker.Data.Start, false
TestParameter, AutoAnalysis.Marker.Data.StartVar, 
TestParameter, AutoAnalysis.Marker.Data.StartCondition, 
MetaData, TestRecord.EntryPoint, true
MetaData, TestRecord.RecordTime, 03/04/2024 17:36:09
MetaData, TestRecord.TestTarget, 2306-1-C1-T401-F
MetaData, TestRecord.IterationIndex, 1
MetaData, TestRecord.Preservation, true
MetaData, TestRecord.Flag, 
MetaData, TestRecord.Remarks, 
MetaData, TestRecord.LinkKey, aa810e7e-790c-49cd-8483-13370917c3cd
Dimension1, 101, 101, 101, 101
Dimension2, 1, 1, 1, 1
DataName, V1, I1, V4, I4
DataValue, 0, 2.1207000000000002E-10, , 
DataValue, 0.1, 6.18127E-09, , 
DataValue, 0.2, 1.24631E-08, , 
DataValue, 0.3, 1.86447E-08, , 
DataValue, 0.4, 2.5962599999999997E-08, , 
DataValue, 0.5, 3.38684E-08, , 
DataValue, 0.6, 4.2444799999999996E-08, , 
DataValue, 0.70000000000000007, 5.2026299999999995E-08, , 
DataValue, 0.8, 6.1684799999999989E-08, , 
DataValue, 0.9, 7.2147199999999988E-08, , 
DataValue, 1, 8.26957E-08, , 
DataValue, 1.1, 9.3805099999999991E-08, , 
DataValue, 1.2, 1.04768E-07, , 
DataValue, 1.3, 1.17549E-07, , 
DataValue, 1.4000000000000001, 1.30185E-07, , 
DataValue, 1.5, 1.41686E-07, , 
DataValue, 1.6, 1.55982E-07, , 
DataValue, 1.7000000000000002, 1.70726E-07, , 
DataValue, 1.8, 1.8337299999999998E-07, , 
DataValue, 1.9000000000000001, 1.96251E-07, , 
DataValue, 2, 2.09428E-07, , 
DataValue, 2.1, 2.23201E-07, , 
DataValue, 2.2, 2.3542799999999998E-07, , 
DataValue, 2.3000000000000003, 2.48046E-07, , 
DataValue, 2.4, 2.65013E-07, , 
DataValue, 2.5, 2.77771E-07, , 
DataValue, 2.6, 2.80794E-07, , 
DataValue, 2.7, 2.91728E-07, , 
DataValue, 2.8000000000000003, 3.02141E-07, , 
DataValue, 2.9, 3.08195E-07, , 
DataValue, 3, 3.16636E-07, , 
DataValue, 3.1, 3.79093E-07, , 
DataValue, 3.2, 3.65953E-07, , 
DataValue, 3.3000000000000003, 3.74453E-07, , 
DataValue, 3.4, 3.75247E-07, , 
DataValue, 3.5, 3.75236E-07, , 
DataValue, 3.6, 3.85387E-07, , 
DataValue, 3.7, 3.93416E-07, , 
DataValue, 3.8000000000000003, 3.85645E-07, , 
DataValue, 3.9, 3.88826E-07, , 
DataValue, 4, 3.89127E-07, , 
DataValue, 4.1, 4.01262E-07, , 
DataValue, 4.2, 3.93877E-07, , 
DataValue, 4.3, 4.0486699999999997E-07, , 
DataValue, 4.4, 4.00799E-07, , 
DataValue, 4.5, 4.09846E-07, , 
DataValue, 4.6000000000000005, 4.21546E-07, , 
DataValue, 4.7, 4.23362E-07, , 
DataValue, 4.8, 4.36839E-07, , 
DataValue, 4.9, 4.26227E-07, , 
DataValue, 5, 4.1149499999999997E-07, , 
DataValue, 5.1000000000000005, 4.11226E-07, , 
DataValue, 5.2, 4.31209E-07, , 
DataValue, 5.3, 4.64852E-07, , 
DataValue, 5.4, 4.6727E-07, , 
DataValue, 5.5, 4.6131299999999997E-07, , 
DataValue, 5.6000000000000005, 4.74304E-07, , 
DataValue, 5.7, 4.60416E-07, , 
DataValue, 5.8, 4.61395E-07, , 
DataValue, 5.9, 4.68805E-07, , 
DataValue, 6, 4.8110799999999994E-07, , 
DataValue, 6.1000000000000005, 4.89435E-07, , 
DataValue, 6.2, 4.98011E-07, , 
DataValue, 6.3, 5.25698E-07, , 
DataValue, 6.4, 5.2639E-07, , 
DataValue, 6.5, 5.36255E-07, , 
DataValue, 6.6000000000000005, 5.74832E-07, , 
DataValue, 6.7, 5.90196E-07, , 
DataValue, 6.8, 5.89106E-07, , 
DataValue, 6.9, 6.2788799999999994E-07, , 
DataValue, 7, 6.51594E-07, , 
DataValue, 7.1000000000000005, 6.43214E-07, , 
DataValue, 7.2, 6.6678599999999995E-07, , 
DataValue, 7.3, 6.71313E-07, , 
DataValue, 7.4, 6.7837E-07, , 
DataValue, 7.5, 6.92369E-07, , 
DataValue, 7.6000000000000005, 6.97616E-07, , 
DataValue, 7.7, 6.98076E-07, , 
DataValue, 7.8, 6.96845E-07, , 
DataValue, 7.9, 7.01356E-07, , 
DataValue, 8, 7.21054E-07, , 
DataValue, 8.1, 7.4809E-07, , 
DataValue, 8.2, 7.70648E-07, , 
DataValue, 8.3, 7.78469E-07, , 
DataValue, 8.4, 8.13261E-07, , 
DataValue, 8.5, 8.6054E-07, , 
DataValue, 8.6, 8.3125599999999994E-07, , 
DataValue, 8.7000000000000011, 8.5765E-07, , 
DataValue, 8.8, 8.67727E-07, , 
DataValue, 8.9, 8.93082E-07, , 
DataValue, 9, 8.68074E-07, , 
DataValue, 9.1, 8.49778E-07, , 
DataValue, 9.2000000000000011, 8.99968E-07, , 
DataValue, 9.3, 9.22884E-07, , 
DataValue, 9.4, 9.33402E-07, , 
DataValue, 9.5, 9.5731E-07, , 
DataValue, 9.6, 9.40355E-07, , 
DataValue, 9.7000000000000011, 9.56453E-07, , 
DataValue, 9.8, 9.5466E-07, , 
DataValue, 9.9, 9.5516599999999989E-07, , 
DataValue, 10, 9.51253E-07, , 