
SetupTitle, PN-F
PrimitiveTest, I/V Sweep
TestParameter, Context.MainFrame, 4156B
TestParameter, Channel.UnitType, SMU, SMU
TestParameter, Channel.Unit, SMU1:HR, SMU2:HR
TestParameter, Channel.IName, I1, I2
TestParameter, Channel.VName, V1, V2
TestParameter, Channel.Mode, V, V
TestParameter, Channel.Func, VAR1, CONST
TestParameter, Channel.Index, 
TestParameter, Channel.Time, 
TestParameter, Measurement.Port.Unit, SMU1:HR, SMU2:HR
TestParameter, Measurement.Port.SeriesResistor, NONE, NONE
TestParameter, Measurement.Port.Filter, ON, ON
TestParameter, Measurement.Primary.Locus, Single
TestParameter, Measurement.Primary.Scale, LINEAR
TestParameter, Measurement.Primary.Start, 0
TestParameter, Measurement.Primary.Stop, 10
TestParameter, Measurement.Primary.Step, 0.2
TestParameter, Measurement.Primary.Compliance, 0.0001
TestParameter, Measurement.Primary.PowerCompliance, 0.001
TestParameter, Measurement.Aborting.Condition, STOP AT ANY ABNORMAL
TestParameter, Measurement.PostOutput.Value, START
TestParameter, Measurement.PostOutput.Retention, OFF
TestParameter, Measurement.Bias.Source, 0, 0
TestParameter, Measurement.Bias.Compliance, 0.0001, 0.005
TestParameter, Measurement.Monitor.Unit, SMU1:HR, SMU2:HR
TestParameter, Measurement.Monitor.Adc, HR ADC, HR ADC
TestParameter, Measurement.Monitor.RangingMode, LIMITED, LIMITED
TestParameter, Measurement.Monitor.RangeBoundary, 1nA, 1nA
TestParameter, Measurement.Monitor.RangeRating, BY FULL RANGE, BY FULL RANGE
TestParameter, Measurement.Monitor.RangeRatingCoeff, 50, 50
TestParameter, Measurement.Timing.Hold, 1
TestParameter, Measurement.Timing.Delay, 0.1
TestParameter, Measurement.Adc.HighResolution.AutoZero, OFF
TestParameter, Measurement.Adc.HighResolution.Mode, AUTO
TestParameter, Measurement.Adc.HighResolution.Coeff, 1
TestParameter, Measurement.Ag16440ASelector.SemiconductorRelay.Channel1, DEFAULT
TestParameter, Measurement.Ag16440ASelector.SemiconductorRelay.Channel3, DEFAULT
TestParameter, Output.Graph.Enabled, true
TestParameter, Output.Graph.XAxis.Data, V1
TestParameter, Output.Graph.XAxis.Scale, Linear
TestParameter, Output.Graph.XAxis.Left, 0
TestParameter, Output.Graph.XAxis.Right, 5
TestParameter, Output.Graph.YAxis.Data, I1
TestParameter, Output.Graph.YAxis.Scale, Linear
TestParameter, Output.Graph.YAxis.Bottom, -0.001
TestParameter, Output.Graph.YAxis.Top, 0.001
TestParameter, Output.Graph.YAxis.Group, 
TestParameter, Output.List.Data, V1, I1, V4, I4
TestParameter, AutoAnalysis.Interpolation, false
TestParameter, AutoAnalysis.Line1.Enabled, false
TestParameter, AutoAnalysis.Line1.Type, 1
TestParameter, AutoAnalysis.Line1.Fix, True
TestParameter, AutoAnalysis.Line1.YAxis, 0
TestParameter, AutoAnalysis.Line1.Point1.Type, 0
TestParameter, AutoAnalysis.Line1.Point1.XY.X, 
TestParameter, AutoAnalysis.Line1.Point1.XY.Y, 
TestParameter, AutoAnalysis.Line1.Point1.Data.Var, 
TestParameter, AutoAnalysis.Line1.Point1.Data.Condition, 
TestParameter, AutoAnalysis.Line1.Point1.Data.Start, false
TestParameter, AutoAnalysis.Line1.Point1.Data.StartVar, 
TestParameter, AutoAnalysis.Line1.Point1.Data.StartCondition, 
TestParameter, AutoAnalysis.Line1.Point2.Type, 0
TestParameter, AutoAnalysis.Line1.Point2.XY.X, 
TestParameter, AutoAnalysis.Line1.Point2.XY.Y, 
TestParameter, AutoAnalysis.Line1.Point2.Data.Var, 
TestParameter, AutoAnalysis.Line1.Point2.Data.Condition, 
TestParameter, AutoAnalysis.Line1.Point2.Data.Start, false
TestParameter, AutoAnalysis.Line1.Point2.Data.StartVar, 
TestParameter, AutoAnalysis.Line1.Point2.Data.StartCondition, 
TestParameter, AutoAnalysis.Line1.GradientExpr, 0
TestParameter, AutoAnalysis.Line2.Enabled, false
TestParameter, AutoAnalysis.Line2.Type, 1
TestParameter, AutoAnalysis.Line2.Fix, True
TestParameter, AutoAnalysis.Line2.YAxis, 0
TestParameter, AutoAnalysis.Line2.Point1.Type, 0
TestParameter, AutoAnalysis.Line2.Point1.XY.X, 
TestParameter, AutoAnalysis.Line2.Point1.XY.Y, 
TestParameter, AutoAnalysis.Line2.Point1.Data.Var, 
TestParameter, AutoAnalysis.Line2.Point1.Data.Condition, 
TestParameter, AutoAnalysis.Line2.Point1.Data.Start, false
TestParameter, AutoAnalysis.Line2.Point1.Data.StartVar, 
TestParameter, AutoAnalysis.Line2.Point1.Data.StartCondition, 
TestParameter, AutoAnalysis.Line2.Point2.Type, 0
TestParameter, AutoAnalysis.Line2.Point2.XY.X, 
TestParameter, AutoAnalysis.Line2.Point2.XY.Y, 
TestParameter, AutoAnalysis.Line2.Point2.Data.Var, 
TestParameter, AutoAnalysis.Line2.Point2.Data.Condition, 
TestParameter, AutoAnalysis.Line2.Point2.Data.Start, false
TestParameter, AutoAnalysis.Line2.Point2.Data.StartVar, 
TestParameter, AutoAnalysis.Line2.Point2.Data.StartCondition, 
TestParameter, AutoAnalysis.Line2.GradientExpr, 0
TestParameter, AutoAnalysis.Marker.Enabled, false
TestParameter, AutoAnalysis.Marker.Data.Var, 
TestParameter, AutoAnalysis.Marker.Data.Condition, 
TestParameter, AutoAnalysis.Marker.Data.Start, false
TestParameter, AutoAnalysis.Marker.Data.StartVar, 
TestParameter, AutoAnalysis.Marker.Data.StartCondition, 
MetaData, TestRecord.EntryPoint, true
MetaData, TestRecord.RecordTime, 03/12/2024 19:29:04
MetaData, TestRecord.TestTarget, 2306-1-C2-T302-F
MetaData, TestRecord.IterationIndex, 1
MetaData, TestRecord.Preservation, true
MetaData, TestRecord.Flag, 
MetaData, TestRecord.Remarks, 
MetaData, TestRecord.LinkKey, f8c14758-4aee-474c-82ba-284d3d8cb64b
Dimension1, 51, 51, 51, 51
Dimension2, 1, 1, 1, 1
DataName, V1, I1, V4, I4
DataValue, 0, 1.3110000000000002E-12, , 
DataValue, 0.2, -1.5550000000000001E-12, , 
DataValue, 0.4, -1.095E-12, , 
DataValue, 0.6, 1.209E-12, , 
DataValue, 0.8, 2.219E-12, , 
DataValue, 1, 3.0930000000000003E-12, , 
DataValue, 1.2, 2.26E-12, , 
DataValue, 1.4000000000000001, 8.2800000000000011E-13, , 
DataValue, 1.6, 4.686E-12, , 
DataValue, 1.8, 4.247E-12, , 
DataValue, 2, 7.913E-12, , 
DataValue, 2.2, 1.1244E-11, , 
DataValue, 2.4, 1.1567E-11, , 
DataValue, 2.6, 1.3194E-11, , 
DataValue, 2.8000000000000003, 1.6149E-11, , 
DataValue, 3, 1.2967000000000002E-11, , 
DataValue, 3.2, 1.5425E-11, , 
DataValue, 3.4, 1.5284E-11, , 
DataValue, 3.6, 1.952E-11, , 
DataValue, 3.8000000000000003, 1.9185000000000003E-11, , 
DataValue, 4, 1.9605000000000003E-11, , 
DataValue, 4.2, 2.152E-11, , 
DataValue, 4.4, 2.0291E-11, , 
DataValue, 4.6000000000000005, 2.2054000000000003E-11, , 
DataValue, 4.8, 2.2853E-11, , 
DataValue, 5, 2.4734000000000003E-11, , 
DataValue, 5.2, 2.7674000000000002E-11, , 
DataValue, 5.4, 2.6654000000000002E-11, , 
DataValue, 5.6000000000000005, 2.8196E-11, , 
DataValue, 5.8, 2.8838000000000003E-11, , 
DataValue, 6, 3.0199E-11, , 
DataValue, 6.2, 3.295E-11, , 
DataValue, 6.4, 3.5636000000000004E-11, , 
DataValue, 6.6000000000000005, 3.3637E-11, , 
DataValue, 6.8, 3.8608000000000005E-11, , 
DataValue, 7, 3.7667000000000004E-11, , 
DataValue, 7.2, 3.9276000000000003E-11, , 
DataValue, 7.4, 4.1851000000000005E-11, , 
DataValue, 7.6000000000000005, 4.1871E-11, , 
DataValue, 7.8, 4.5902E-11, , 
DataValue, 8, 4.3149000000000005E-11, , 
DataValue, 8.2, 4.8203000000000005E-11, , 
DataValue, 8.4, 4.9457E-11, , 
DataValue, 8.6, 5.0958000000000006E-11, , 
DataValue, 8.8, 5.1586000000000004E-11, , 
DataValue, 9, 5.3336000000000005E-11, , 
DataValue, 9.2000000000000011, 5.9627E-11, , 
DataValue, 9.4, 6.1445E-11, , 
DataValue, 9.6, 5.9233E-11, , 
DataValue, 9.8, 6.2835000000000008E-11, , 
DataValue, 10, 6.0561E-11, , 