
SetupTitle, PN-F
PrimitiveTest, I/V Sweep
TestParameter, Context.MainFrame, 4156B
TestParameter, Channel.UnitType, SMU, SMU
TestParameter, Channel.Unit, SMU1:HR, SMU2:HR
TestParameter, Channel.IName, I1, I2
TestParameter, Channel.VName, V1, V2
TestParameter, Channel.Mode, V, V
TestParameter, Channel.Func, VAR1, CONST
TestParameter, Channel.Index, 
TestParameter, Channel.Time, 
TestParameter, Measurement.Port.Unit, SMU1:HR, SMU2:HR
TestParameter, Measurement.Port.SeriesResistor, NONE, NONE
TestParameter, Measurement.Port.Filter, ON, ON
TestParameter, Measurement.Primary.Locus, Single
TestParameter, Measurement.Primary.Scale, LINEAR
TestParameter, Measurement.Primary.Start, 0
TestParameter, Measurement.Primary.Stop, 10
TestParameter, Measurement.Primary.Step, 0.1
TestParameter, Measurement.Primary.Compliance, 0.0001
TestParameter, Measurement.Primary.PowerCompliance, 0.001
TestParameter, Measurement.Aborting.Condition, STOP AT ANY ABNORMAL
TestParameter, Measurement.PostOutput.Value, START
TestParameter, Measurement.PostOutput.Retention, OFF
TestParameter, Measurement.Bias.Source, 0, 0
TestParameter, Measurement.Bias.Compliance, 0.0001, 0.005
TestParameter, Measurement.Monitor.Unit, SMU1:HR, SMU2:HR
TestParameter, Measurement.Monitor.Adc, HR ADC, HR ADC
TestParameter, Measurement.Monitor.RangingMode, LIMITED, LIMITED
TestParameter, Measurement.Monitor.RangeBoundary, 1nA, 1nA
TestParameter, Measurement.Monitor.RangeRating, BY FULL RANGE, BY FULL RANGE
TestParameter, Measurement.Monitor.RangeRatingCoeff, 50, 50
TestParameter, Measurement.Timing.Hold, 1
TestParameter, Measurement.Timing.Delay, 0.1
TestParameter, Measurement.Adc.HighResolution.AutoZero, OFF
TestParameter, Measurement.Adc.HighResolution.Mode, AUTO
TestParameter, Measurement.Adc.HighResolution.Coeff, 1
TestParameter, Measurement.Ag16440ASelector.SemiconductorRelay.Channel1, DEFAULT
TestParameter, Measurement.Ag16440ASelector.SemiconductorRelay.Channel3, DEFAULT
TestParameter, Output.Graph.Enabled, true
TestParameter, Output.Graph.XAxis.Data, V1
TestParameter, Output.Graph.XAxis.Scale, Linear
TestParameter, Output.Graph.XAxis.Left, 0
TestParameter, Output.Graph.XAxis.Right, 5
TestParameter, Output.Graph.YAxis.Data, I1
TestParameter, Output.Graph.YAxis.Scale, Linear
TestParameter, Output.Graph.YAxis.Bottom, -0.001
TestParameter, Output.Graph.YAxis.Top, 0.001
TestParameter, Output.Graph.YAxis.Group, 
TestParameter, Output.List.Data, V1, I1, V4, I4
TestParameter, AutoAnalysis.Interpolation, false
TestParameter, AutoAnalysis.Line1.Enabled, false
TestParameter, AutoAnalysis.Line1.Type, 1
TestParameter, AutoAnalysis.Line1.Fix, True
TestParameter, AutoAnalysis.Line1.YAxis, 0
TestParameter, AutoAnalysis.Line1.Point1.Type, 0
TestParameter, AutoAnalysis.Line1.Point1.XY.X, 
TestParameter, AutoAnalysis.Line1.Point1.XY.Y, 
TestParameter, AutoAnalysis.Line1.Point1.Data.Var, 
TestParameter, AutoAnalysis.Line1.Point1.Data.Condition, 
TestParameter, AutoAnalysis.Line1.Point1.Data.Start, false
TestParameter, AutoAnalysis.Line1.Point1.Data.StartVar, 
TestParameter, AutoAnalysis.Line1.Point1.Data.StartCondition, 
TestParameter, AutoAnalysis.Line1.Point2.Type, 0
TestParameter, AutoAnalysis.Line1.Point2.XY.X, 
TestParameter, AutoAnalysis.Line1.Point2.XY.Y, 
TestParameter, AutoAnalysis.Line1.Point2.Data.Var, 
TestParameter, AutoAnalysis.Line1.Point2.Data.Condition, 
TestParameter, AutoAnalysis.Line1.Point2.Data.Start, false
TestParameter, AutoAnalysis.Line1.Point2.Data.StartVar, 
TestParameter, AutoAnalysis.Line1.Point2.Data.StartCondition, 
TestParameter, AutoAnalysis.Line1.GradientExpr, 0
TestParameter, AutoAnalysis.Line2.Enabled, false
TestParameter, AutoAnalysis.Line2.Type, 1
TestParameter, AutoAnalysis.Line2.Fix, True
TestParameter, AutoAnalysis.Line2.YAxis, 0
TestParameter, AutoAnalysis.Line2.Point1.Type, 0
TestParameter, AutoAnalysis.Line2.Point1.XY.X, 
TestParameter, AutoAnalysis.Line2.Point1.XY.Y, 
TestParameter, AutoAnalysis.Line2.Point1.Data.Var, 
TestParameter, AutoAnalysis.Line2.Point1.Data.Condition, 
TestParameter, AutoAnalysis.Line2.Point1.Data.Start, false
TestParameter, AutoAnalysis.Line2.Point1.Data.StartVar, 
TestParameter, AutoAnalysis.Line2.Point1.Data.StartCondition, 
TestParameter, AutoAnalysis.Line2.Point2.Type, 0
TestParameter, AutoAnalysis.Line2.Point2.XY.X, 
TestParameter, AutoAnalysis.Line2.Point2.XY.Y, 
TestParameter, AutoAnalysis.Line2.Point2.Data.Var, 
TestParameter, AutoAnalysis.Line2.Point2.Data.Condition, 
TestParameter, AutoAnalysis.Line2.Point2.Data.Start, false
TestParameter, AutoAnalysis.Line2.Point2.Data.StartVar, 
TestParameter, AutoAnalysis.Line2.Point2.Data.StartCondition, 
TestParameter, AutoAnalysis.Line2.GradientExpr, 0
TestParameter, AutoAnalysis.Marker.Enabled, false
TestParameter, AutoAnalysis.Marker.Data.Var, 
TestParameter, AutoAnalysis.Marker.Data.Condition, 
TestParameter, AutoAnalysis.Marker.Data.Start, false
TestParameter, AutoAnalysis.Marker.Data.StartVar, 
TestParameter, AutoAnalysis.Marker.Data.StartCondition, 
MetaData, TestRecord.EntryPoint, true
MetaData, TestRecord.RecordTime, 03/04/2024 14:24:39
MetaData, TestRecord.TestTarget, 2306-1-C1-T414-F
MetaData, TestRecord.IterationIndex, 1
MetaData, TestRecord.Preservation, true
MetaData, TestRecord.Flag, 
MetaData, TestRecord.Remarks, 
MetaData, TestRecord.LinkKey, 614d8806-ea1b-4d02-b955-284373d26b7a
Dimension1, 101, 101, 101, 101
Dimension2, 1, 1, 1, 1
DataName, V1, I1, V4, I4
DataValue, 0, -2.9456000000000005E-11, , 
DataValue, 0.1, 8.5421E-10, , 
DataValue, 0.2, 1.05783E-09, , 
DataValue, 0.3, 1.20478E-09, , 
DataValue, 0.4, 1.25726E-09, , 
DataValue, 0.5, 1.40098E-09, , 
DataValue, 0.6, 1.48057E-09, , 
DataValue, 0.70000000000000007, 1.60262E-09, , 
DataValue, 0.8, 1.67581E-09, , 
DataValue, 0.9, 1.80166E-09, , 
DataValue, 1, 1.92626E-09, , 
DataValue, 1.1, 2.02257E-09, , 
DataValue, 1.2, 2.16316E-09, , 
DataValue, 1.3, 2.27183E-09, , 
DataValue, 1.4000000000000001, 2.44069E-09, , 
DataValue, 1.5, 2.49092E-09, , 
DataValue, 1.6, 2.62017E-09, , 
DataValue, 1.7000000000000002, 2.69869E-09, , 
DataValue, 1.8, 2.78403E-09, , 
DataValue, 1.9000000000000001, 2.86036E-09, , 
DataValue, 2, 2.94299E-09, , 
DataValue, 2.1, 3.06691E-09, , 
DataValue, 2.2, 3.06608E-09, , 
DataValue, 2.3000000000000003, 3.1845E-09, , 
DataValue, 2.4, 3.24145E-09, , 
DataValue, 2.5, 3.32782E-09, , 
DataValue, 2.6, 3.40071E-09, , 
DataValue, 2.7, 3.4312E-09, , 
DataValue, 2.8000000000000003, 3.54205E-09, , 
DataValue, 2.9, 3.61262E-09, , 
DataValue, 3, 3.68312E-09, , 
DataValue, 3.1, 3.79516E-09, , 
DataValue, 3.2, 3.78338E-09, , 
DataValue, 3.3000000000000003, 3.89794E-09, , 
DataValue, 3.4, 3.9426E-09, , 
DataValue, 3.5, 4.03928E-09, , 
DataValue, 3.6, 4.14894E-09, , 
DataValue, 3.7, 4.17974E-09, , 
DataValue, 3.8000000000000003, 4.28684E-09, , 
DataValue, 3.9, 4.35239E-09, , 
DataValue, 4, 4.43973E-09, , 
DataValue, 4.1, 4.52707E-09, , 
DataValue, 4.2, 4.52635E-09, , 
DataValue, 4.3, 4.66591E-09, , 
DataValue, 4.4, 4.74956E-09, , 
DataValue, 4.5, 4.79711E-09, , 
DataValue, 4.6000000000000005, 4.87306E-09, , 
DataValue, 4.7, 4.94886E-09, , 
DataValue, 4.8, 5.01628E-09, , 
DataValue, 4.9, 5.07352E-09, , 
DataValue, 5, 5.14941E-09, , 
DataValue, 5.1000000000000005, 5.22286E-09, , 
DataValue, 5.2, 5.2733E-09, , 
DataValue, 5.3, 5.3544E-09, , 
DataValue, 5.4, 5.41755E-09, , 
DataValue, 5.5, 5.47432E-09, , 
DataValue, 5.6000000000000005, 5.55129E-09, , 
DataValue, 5.7, 5.6374E-09, , 
DataValue, 5.8, 5.5896999999999994E-09, , 
DataValue, 5.9, 5.7443E-09, , 
DataValue, 6, 5.87726E-09, , 
DataValue, 6.1000000000000005, 5.87704E-09, , 
DataValue, 6.2, 5.91706E-09, , 
DataValue, 6.3, 6.0062E-09, , 
DataValue, 6.4, 6.07744E-09, , 
DataValue, 6.5, 6.1739E-09, , 
DataValue, 6.6000000000000005, 6.14017E-09, , 
DataValue, 6.7, 6.1608999999999993E-09, , 
DataValue, 6.8, 6.32894E-09, , 
DataValue, 6.9, 6.41686E-09, , 
DataValue, 7, 6.4097E-09, , 
DataValue, 7.1000000000000005, 6.50205E-09, , 
DataValue, 7.2, 6.56956E-09, , 
DataValue, 7.3, 6.6469E-09, , 
DataValue, 7.4, 6.66004E-09, , 
DataValue, 7.5, 6.75698E-09, , 
DataValue, 7.6000000000000005, 6.82447E-09, , 
DataValue, 7.7, 6.93348E-09, , 
DataValue, 7.8, 6.92378E-09, , 
DataValue, 7.9, 7.00314E-09, , 
DataValue, 8, 7.06546E-09, , 
DataValue, 8.1, 7.1334E-09, , 
DataValue, 8.2, 7.18777E-09, , 
DataValue, 8.3, 7.21795E-09, , 
DataValue, 8.4, 7.30284E-09, , 
DataValue, 8.5, 7.36707E-09, , 
DataValue, 8.6, 7.43214E-09, , 
DataValue, 8.7000000000000011, 7.3977999999999994E-09, , 
DataValue, 8.8, 7.55426E-09, , 
DataValue, 8.9, 7.5906E-09, , 
DataValue, 9, 7.5948999999999991E-09, , 
DataValue, 9.1, 7.73813E-09, , 
DataValue, 9.2000000000000011, 7.78141E-09, , 
DataValue, 9.3, 7.8394E-09, , 
DataValue, 9.4, 7.90915E-09, , 
DataValue, 9.5, 7.96886E-09, , 
DataValue, 9.6, 8.05903E-09, , 
DataValue, 9.7000000000000011, 8.08458E-09, , 
DataValue, 9.8, 8.13551E-09, , 
DataValue, 9.9, 8.18205E-09, , 
DataValue, 10, 8.1723E-09, , 