
SetupTitle, PN-F
PrimitiveTest, I/V Sweep
TestParameter, Context.MainFrame, 4156B
TestParameter, Channel.UnitType, SMU, SMU
TestParameter, Channel.Unit, SMU1:HR, SMU2:HR
TestParameter, Channel.IName, I1, I2
TestParameter, Channel.VName, V1, V2
TestParameter, Channel.Mode, V, V
TestParameter, Channel.Func, VAR1, CONST
TestParameter, Channel.Index, 
TestParameter, Channel.Time, 
TestParameter, Measurement.Port.Unit, SMU1:HR, SMU2:HR
TestParameter, Measurement.Port.SeriesResistor, NONE, NONE
TestParameter, Measurement.Port.Filter, ON, ON
TestParameter, Measurement.Primary.Locus, Single
TestParameter, Measurement.Primary.Scale, LINEAR
TestParameter, Measurement.Primary.Start, 0
TestParameter, Measurement.Primary.Stop, 10
TestParameter, Measurement.Primary.Step, 0.1
TestParameter, Measurement.Primary.Compliance, 0.0001
TestParameter, Measurement.Primary.PowerCompliance, 0.001
TestParameter, Measurement.Aborting.Condition, STOP AT ANY ABNORMAL
TestParameter, Measurement.PostOutput.Value, START
TestParameter, Measurement.PostOutput.Retention, OFF
TestParameter, Measurement.Bias.Source, 0, 0
TestParameter, Measurement.Bias.Compliance, 0.0001, 0.005
TestParameter, Measurement.Monitor.Unit, SMU1:HR, SMU2:HR
TestParameter, Measurement.Monitor.Adc, HR ADC, HR ADC
TestParameter, Measurement.Monitor.RangingMode, LIMITED, LIMITED
TestParameter, Measurement.Monitor.RangeBoundary, 1nA, 1nA
TestParameter, Measurement.Monitor.RangeRating, BY FULL RANGE, BY FULL RANGE
TestParameter, Measurement.Monitor.RangeRatingCoeff, 50, 50
TestParameter, Measurement.Timing.Hold, 1
TestParameter, Measurement.Timing.Delay, 0.1
TestParameter, Measurement.Adc.HighResolution.AutoZero, OFF
TestParameter, Measurement.Adc.HighResolution.Mode, AUTO
TestParameter, Measurement.Adc.HighResolution.Coeff, 1
TestParameter, Measurement.Ag16440ASelector.SemiconductorRelay.Channel1, DEFAULT
TestParameter, Measurement.Ag16440ASelector.SemiconductorRelay.Channel3, DEFAULT
TestParameter, Output.Graph.Enabled, true
TestParameter, Output.Graph.XAxis.Data, V1
TestParameter, Output.Graph.XAxis.Scale, Linear
TestParameter, Output.Graph.XAxis.Left, 0
TestParameter, Output.Graph.XAxis.Right, 5
TestParameter, Output.Graph.YAxis.Data, I1
TestParameter, Output.Graph.YAxis.Scale, Linear
TestParameter, Output.Graph.YAxis.Bottom, -0.001
TestParameter, Output.Graph.YAxis.Top, 0.001
TestParameter, Output.Graph.YAxis.Group, 
TestParameter, Output.List.Data, V1, I1, V4, I4
TestParameter, AutoAnalysis.Interpolation, false
TestParameter, AutoAnalysis.Line1.Enabled, false
TestParameter, AutoAnalysis.Line1.Type, 1
TestParameter, AutoAnalysis.Line1.Fix, True
TestParameter, AutoAnalysis.Line1.YAxis, 0
TestParameter, AutoAnalysis.Line1.Point1.Type, 0
TestParameter, AutoAnalysis.Line1.Point1.XY.X, 
TestParameter, AutoAnalysis.Line1.Point1.XY.Y, 
TestParameter, AutoAnalysis.Line1.Point1.Data.Var, 
TestParameter, AutoAnalysis.Line1.Point1.Data.Condition, 
TestParameter, AutoAnalysis.Line1.Point1.Data.Start, false
TestParameter, AutoAnalysis.Line1.Point1.Data.StartVar, 
TestParameter, AutoAnalysis.Line1.Point1.Data.StartCondition, 
TestParameter, AutoAnalysis.Line1.Point2.Type, 0
TestParameter, AutoAnalysis.Line1.Point2.XY.X, 
TestParameter, AutoAnalysis.Line1.Point2.XY.Y, 
TestParameter, AutoAnalysis.Line1.Point2.Data.Var, 
TestParameter, AutoAnalysis.Line1.Point2.Data.Condition, 
TestParameter, AutoAnalysis.Line1.Point2.Data.Start, false
TestParameter, AutoAnalysis.Line1.Point2.Data.StartVar, 
TestParameter, AutoAnalysis.Line1.Point2.Data.StartCondition, 
TestParameter, AutoAnalysis.Line1.GradientExpr, 0
TestParameter, AutoAnalysis.Line2.Enabled, false
TestParameter, AutoAnalysis.Line2.Type, 1
TestParameter, AutoAnalysis.Line2.Fix, True
TestParameter, AutoAnalysis.Line2.YAxis, 0
TestParameter, AutoAnalysis.Line2.Point1.Type, 0
TestParameter, AutoAnalysis.Line2.Point1.XY.X, 
TestParameter, AutoAnalysis.Line2.Point1.XY.Y, 
TestParameter, AutoAnalysis.Line2.Point1.Data.Var, 
TestParameter, AutoAnalysis.Line2.Point1.Data.Condition, 
TestParameter, AutoAnalysis.Line2.Point1.Data.Start, false
TestParameter, AutoAnalysis.Line2.Point1.Data.StartVar, 
TestParameter, AutoAnalysis.Line2.Point1.Data.StartCondition, 
TestParameter, AutoAnalysis.Line2.Point2.Type, 0
TestParameter, AutoAnalysis.Line2.Point2.XY.X, 
TestParameter, AutoAnalysis.Line2.Point2.XY.Y, 
TestParameter, AutoAnalysis.Line2.Point2.Data.Var, 
TestParameter, AutoAnalysis.Line2.Point2.Data.Condition, 
TestParameter, AutoAnalysis.Line2.Point2.Data.Start, false
TestParameter, AutoAnalysis.Line2.Point2.Data.StartVar, 
TestParameter, AutoAnalysis.Line2.Point2.Data.StartCondition, 
TestParameter, AutoAnalysis.Line2.GradientExpr, 0
TestParameter, AutoAnalysis.Marker.Enabled, false
TestParameter, AutoAnalysis.Marker.Data.Var, 
TestParameter, AutoAnalysis.Marker.Data.Condition, 
TestParameter, AutoAnalysis.Marker.Data.Start, false
TestParameter, AutoAnalysis.Marker.Data.StartVar, 
TestParameter, AutoAnalysis.Marker.Data.StartCondition, 
MetaData, TestRecord.EntryPoint, true
MetaData, TestRecord.RecordTime, 03/12/2024 18:48:54
MetaData, TestRecord.TestTarget, 2306-1-C2-T102-F
MetaData, TestRecord.IterationIndex, 2
MetaData, TestRecord.Preservation, true
MetaData, TestRecord.Flag, 
MetaData, TestRecord.Remarks, 
MetaData, TestRecord.LinkKey, ff9fe329-b4bf-4fa2-98a4-cda3e01baa23
Dimension1, 101, 101, 101, 101
Dimension2, 1, 1, 1, 1
DataName, V1, I1, V4, I4
DataValue, 0, 1.3819900000000002E-10, , 
DataValue, 0.1, 6.9923E-10, , 
DataValue, 0.2, 1.35146E-09, , 
DataValue, 0.3, 1.18435E-09, , 
DataValue, 0.4, 1.42857E-09, , 
DataValue, 0.5, 1.51722E-09, , 
DataValue, 0.6, 1.50291E-09, , 
DataValue, 0.70000000000000007, 1.59037E-09, , 
DataValue, 0.8, 1.61037E-09, , 
DataValue, 0.9, 1.616E-09, , 
DataValue, 1, 1.60217E-09, , 
DataValue, 1.1, 1.69889E-09, , 
DataValue, 1.2, 1.7845E-09, , 
DataValue, 1.3, 1.86443E-09, , 
DataValue, 1.4000000000000001, 1.94387E-09, , 
DataValue, 1.5, 2.00673E-09, , 
DataValue, 1.6, 2.04307E-09, , 
DataValue, 1.7000000000000002, 2.08953E-09, , 
DataValue, 1.8, 2.10425E-09, , 
DataValue, 1.9000000000000001, 2.14943E-09, , 
DataValue, 2, 2.2038E-09, , 
DataValue, 2.1, 2.2079E-09, , 
DataValue, 2.2, 2.2476E-09, , 
DataValue, 2.3000000000000003, 2.29057E-09, , 
DataValue, 2.4, 2.31567E-09, , 
DataValue, 2.5, 2.33729E-09, , 
DataValue, 2.6, 2.37459E-09, , 
DataValue, 2.7, 2.39462E-09, , 
DataValue, 2.8000000000000003, 2.4435E-09, , 
DataValue, 2.9, 2.42495E-09, , 
DataValue, 3, 2.47005E-09, , 
DataValue, 3.1, 2.49483E-09, , 
DataValue, 3.2, 2.53563E-09, , 
DataValue, 3.3000000000000003, 2.54218E-09, , 
DataValue, 3.4, 2.58341E-09, , 
DataValue, 3.5, 2.62997E-09, , 
DataValue, 3.6, 2.61685E-09, , 
DataValue, 3.7, 2.66551E-09, , 
DataValue, 3.8000000000000003, 2.68906E-09, , 
DataValue, 3.9, 2.73014E-09, , 
DataValue, 4, 2.74506E-09, , 
DataValue, 4.1, 2.78252E-09, , 
DataValue, 4.2, 2.83205E-09, , 
DataValue, 4.3, 2.84311E-09, , 
DataValue, 4.4, 2.93059E-09, , 
DataValue, 4.5, 2.91763E-09, , 
DataValue, 4.6000000000000005, 2.95735E-09, , 
DataValue, 4.7, 2.97338E-09, , 
DataValue, 4.8, 3.03588E-09, , 
DataValue, 4.9, 3.04504E-09, , 
DataValue, 5, 3.09507E-09, , 
DataValue, 5.1000000000000005, 3.10495E-09, , 
DataValue, 5.2, 3.15004E-09, , 
DataValue, 5.3, 3.20497E-09, , 
DataValue, 5.4, 3.22749E-09, , 
DataValue, 5.5, 3.26147E-09, , 
DataValue, 5.6000000000000005, 3.2799699999999998E-09, , 
DataValue, 5.7, 3.31903E-09, , 
DataValue, 5.8, 3.31169E-09, , 
DataValue, 5.9, 3.39258E-09, , 
DataValue, 6, 3.3229E-09, , 
DataValue, 6.1000000000000005, 3.36989E-09, , 
DataValue, 6.2, 3.39494E-09, , 
DataValue, 6.3, 3.4262E-09, , 
DataValue, 6.4, 3.48505E-09, , 
DataValue, 6.5, 3.49648E-09, , 
DataValue, 6.6000000000000005, 3.55159E-09, , 
DataValue, 6.7, 3.59092E-09, , 
DataValue, 6.8, 3.60061E-09, , 
DataValue, 6.9, 3.64558E-09, , 
DataValue, 7, 3.70385E-09, , 
DataValue, 7.1000000000000005, 3.76987E-09, , 
DataValue, 7.2, 3.76836E-09, , 
DataValue, 7.3, 3.8243E-09, , 
DataValue, 7.4, 3.91053E-09, , 
DataValue, 7.5, 3.90415E-09, , 
DataValue, 7.6000000000000005, 3.96361E-09, , 
DataValue, 7.7, 3.99367E-09, , 
DataValue, 7.8, 4.03126E-09, , 
DataValue, 7.9, 4.07714E-09, , 
DataValue, 8, 4.12872E-09, , 
DataValue, 8.1, 4.21235E-09, , 
DataValue, 8.2, 4.22327E-09, , 
DataValue, 8.3, 4.27505E-09, , 
DataValue, 8.4, 4.33727E-09, , 
DataValue, 8.5, 4.32868E-09, , 
DataValue, 8.6, 4.41262E-09, , 
DataValue, 8.7000000000000011, 4.49459E-09, , 
DataValue, 8.8, 4.49849E-09, , 
DataValue, 8.9, 4.55416E-09, , 
DataValue, 9, 4.60156E-09, , 
DataValue, 9.1, 4.60694E-09, , 
DataValue, 9.2000000000000011, 4.68933E-09, , 
DataValue, 9.3, 4.74922E-09, , 
DataValue, 9.4, 4.80798E-09, , 
DataValue, 9.5, 4.85821E-09, , 
DataValue, 9.6, 4.91184E-09, , 
DataValue, 9.7000000000000011, 4.98305E-09, , 
DataValue, 9.8, 5.06173E-09, , 
DataValue, 9.9, 5.09994E-09, , 
DataValue, 10, 5.13758E-09, , 