
SetupTitle, PN-F
PrimitiveTest, I/V Sweep
TestParameter, Context.MainFrame, 4156B
TestParameter, Channel.UnitType, SMU, SMU
TestParameter, Channel.Unit, SMU1:HR, SMU2:HR
TestParameter, Channel.IName, I1, I2
TestParameter, Channel.VName, V1, V2
TestParameter, Channel.Mode, V, V
TestParameter, Channel.Func, VAR1, CONST
TestParameter, Channel.Index, 
TestParameter, Channel.Time, 
TestParameter, Measurement.Port.Unit, SMU1:HR, SMU2:HR
TestParameter, Measurement.Port.SeriesResistor, NONE, NONE
TestParameter, Measurement.Port.Filter, ON, ON
TestParameter, Measurement.Primary.Locus, Single
TestParameter, Measurement.Primary.Scale, LINEAR
TestParameter, Measurement.Primary.Start, 0
TestParameter, Measurement.Primary.Stop, 10
TestParameter, Measurement.Primary.Step, 0.1
TestParameter, Measurement.Primary.Compliance, 0.0001
TestParameter, Measurement.Primary.PowerCompliance, 0.001
TestParameter, Measurement.Aborting.Condition, STOP AT ANY ABNORMAL
TestParameter, Measurement.PostOutput.Value, START
TestParameter, Measurement.PostOutput.Retention, OFF
TestParameter, Measurement.Bias.Source, 0, 0
TestParameter, Measurement.Bias.Compliance, 0.0001, 0.005
TestParameter, Measurement.Monitor.Unit, SMU1:HR, SMU2:HR
TestParameter, Measurement.Monitor.Adc, HR ADC, HR ADC
TestParameter, Measurement.Monitor.RangingMode, LIMITED, LIMITED
TestParameter, Measurement.Monitor.RangeBoundary, 1nA, 1nA
TestParameter, Measurement.Monitor.RangeRating, BY FULL RANGE, BY FULL RANGE
TestParameter, Measurement.Monitor.RangeRatingCoeff, 50, 50
TestParameter, Measurement.Timing.Hold, 1
TestParameter, Measurement.Timing.Delay, 0.1
TestParameter, Measurement.Adc.HighResolution.AutoZero, OFF
TestParameter, Measurement.Adc.HighResolution.Mode, AUTO
TestParameter, Measurement.Adc.HighResolution.Coeff, 1
TestParameter, Measurement.Ag16440ASelector.SemiconductorRelay.Channel1, DEFAULT
TestParameter, Measurement.Ag16440ASelector.SemiconductorRelay.Channel3, DEFAULT
TestParameter, Output.Graph.Enabled, true
TestParameter, Output.Graph.XAxis.Data, V1
TestParameter, Output.Graph.XAxis.Scale, Linear
TestParameter, Output.Graph.XAxis.Left, 0
TestParameter, Output.Graph.XAxis.Right, 5
TestParameter, Output.Graph.YAxis.Data, I1
TestParameter, Output.Graph.YAxis.Scale, Linear
TestParameter, Output.Graph.YAxis.Bottom, -0.001
TestParameter, Output.Graph.YAxis.Top, 0.001
TestParameter, Output.Graph.YAxis.Group, 
TestParameter, Output.List.Data, V1, I1, V4, I4
TestParameter, AutoAnalysis.Interpolation, false
TestParameter, AutoAnalysis.Line1.Enabled, false
TestParameter, AutoAnalysis.Line1.Type, 1
TestParameter, AutoAnalysis.Line1.Fix, True
TestParameter, AutoAnalysis.Line1.YAxis, 0
TestParameter, AutoAnalysis.Line1.Point1.Type, 0
TestParameter, AutoAnalysis.Line1.Point1.XY.X, 
TestParameter, AutoAnalysis.Line1.Point1.XY.Y, 
TestParameter, AutoAnalysis.Line1.Point1.Data.Var, 
TestParameter, AutoAnalysis.Line1.Point1.Data.Condition, 
TestParameter, AutoAnalysis.Line1.Point1.Data.Start, false
TestParameter, AutoAnalysis.Line1.Point1.Data.StartVar, 
TestParameter, AutoAnalysis.Line1.Point1.Data.StartCondition, 
TestParameter, AutoAnalysis.Line1.Point2.Type, 0
TestParameter, AutoAnalysis.Line1.Point2.XY.X, 
TestParameter, AutoAnalysis.Line1.Point2.XY.Y, 
TestParameter, AutoAnalysis.Line1.Point2.Data.Var, 
TestParameter, AutoAnalysis.Line1.Point2.Data.Condition, 
TestParameter, AutoAnalysis.Line1.Point2.Data.Start, false
TestParameter, AutoAnalysis.Line1.Point2.Data.StartVar, 
TestParameter, AutoAnalysis.Line1.Point2.Data.StartCondition, 
TestParameter, AutoAnalysis.Line1.GradientExpr, 0
TestParameter, AutoAnalysis.Line2.Enabled, false
TestParameter, AutoAnalysis.Line2.Type, 1
TestParameter, AutoAnalysis.Line2.Fix, True
TestParameter, AutoAnalysis.Line2.YAxis, 0
TestParameter, AutoAnalysis.Line2.Point1.Type, 0
TestParameter, AutoAnalysis.Line2.Point1.XY.X, 
TestParameter, AutoAnalysis.Line2.Point1.XY.Y, 
TestParameter, AutoAnalysis.Line2.Point1.Data.Var, 
TestParameter, AutoAnalysis.Line2.Point1.Data.Condition, 
TestParameter, AutoAnalysis.Line2.Point1.Data.Start, false
TestParameter, AutoAnalysis.Line2.Point1.Data.StartVar, 
TestParameter, AutoAnalysis.Line2.Point1.Data.StartCondition, 
TestParameter, AutoAnalysis.Line2.Point2.Type, 0
TestParameter, AutoAnalysis.Line2.Point2.XY.X, 
TestParameter, AutoAnalysis.Line2.Point2.XY.Y, 
TestParameter, AutoAnalysis.Line2.Point2.Data.Var, 
TestParameter, AutoAnalysis.Line2.Point2.Data.Condition, 
TestParameter, AutoAnalysis.Line2.Point2.Data.Start, false
TestParameter, AutoAnalysis.Line2.Point2.Data.StartVar, 
TestParameter, AutoAnalysis.Line2.Point2.Data.StartCondition, 
TestParameter, AutoAnalysis.Line2.GradientExpr, 0
TestParameter, AutoAnalysis.Marker.Enabled, false
TestParameter, AutoAnalysis.Marker.Data.Var, 
TestParameter, AutoAnalysis.Marker.Data.Condition, 
TestParameter, AutoAnalysis.Marker.Data.Start, false
TestParameter, AutoAnalysis.Marker.Data.StartVar, 
TestParameter, AutoAnalysis.Marker.Data.StartCondition, 
MetaData, TestRecord.EntryPoint, true
MetaData, TestRecord.RecordTime, 03/04/2024 14:08:19
MetaData, TestRecord.TestTarget, 2306-1-C1-T403-F
MetaData, TestRecord.IterationIndex, 1
MetaData, TestRecord.Preservation, true
MetaData, TestRecord.Flag, 
MetaData, TestRecord.Remarks, 
MetaData, TestRecord.LinkKey, 522c20ac-66e1-4c69-b24e-ae3d4b42cc8e
Dimension1, 101, 101, 101, 101
Dimension2, 1, 1, 1, 1
DataName, V1, I1, V4, I4
DataValue, 0, 1.4500000000000002E-10, , 
DataValue, 0.1, 3.83013E-09, , 
DataValue, 0.2, 7.38636E-09, , 
DataValue, 0.3, 1.0816199999999998E-08, , 
DataValue, 0.4, 1.41772E-08, , 
DataValue, 0.5, 1.75973E-08, , 
DataValue, 0.6, 2.10293E-08, , 
DataValue, 0.70000000000000007, 2.45401E-08, , 
DataValue, 0.8, 2.8073199999999997E-08, , 
DataValue, 0.9, 3.1798299999999994E-08, , 
DataValue, 1, 3.5510899999999994E-08, , 
DataValue, 1.1, 3.9227299999999994E-08, , 
DataValue, 1.2, 4.2924399999999996E-08, , 
DataValue, 1.3, 4.69507E-08, , 
DataValue, 1.4000000000000001, 5.0753E-08, , 
DataValue, 1.5, 5.4719199999999993E-08, , 
DataValue, 1.6, 5.8520399999999992E-08, , 
DataValue, 1.7000000000000002, 6.2569399999999991E-08, , 
DataValue, 1.8, 6.64555E-08, , 
DataValue, 1.9000000000000001, 7.03349E-08, , 
DataValue, 2, 7.42785E-08, , 
DataValue, 2.1, 7.8395199999999992E-08, , 
DataValue, 2.2, 8.227529999999999E-08, , 
DataValue, 2.3000000000000003, 8.6215E-08, , 
DataValue, 2.4, 9.02518E-08, , 
DataValue, 2.5, 9.43194E-08, , 
DataValue, 2.6, 9.8421999999999993E-08, , 
DataValue, 2.7, 1.02481E-07, , 
DataValue, 2.8000000000000003, 1.06558E-07, , 
DataValue, 2.9, 1.10646E-07, , 
DataValue, 3, 1.14872E-07, , 
DataValue, 3.1, 1.19041E-07, , 
DataValue, 3.2, 1.2332E-07, , 
DataValue, 3.3000000000000003, 1.27563E-07, , 
DataValue, 3.4, 1.31736E-07, , 
DataValue, 3.5, 1.3607E-07, , 
DataValue, 3.6, 1.40297E-07, , 
DataValue, 3.7, 1.44705E-07, , 
DataValue, 3.8000000000000003, 1.4903E-07, , 
DataValue, 3.9, 1.5360999999999998E-07, , 
DataValue, 4, 1.5813899999999998E-07, , 
DataValue, 4.1, 1.62748E-07, , 
DataValue, 4.2, 1.67233E-07, , 
DataValue, 4.3, 1.71953E-07, , 
DataValue, 4.4, 1.76529E-07, , 
DataValue, 4.5, 1.81093E-07, , 
DataValue, 4.6000000000000005, 1.85697E-07, , 
DataValue, 4.7, 1.90482E-07, , 
DataValue, 4.8, 1.95122E-07, , 
DataValue, 4.9, 1.99836E-07, , 
DataValue, 5, 2.0469E-07, , 
DataValue, 5.1000000000000005, 2.0940299999999999E-07, , 
DataValue, 5.2, 2.1435199999999999E-07, , 
DataValue, 5.3, 2.19196E-07, , 
DataValue, 5.4, 2.24066E-07, , 
DataValue, 5.5, 2.28935E-07, , 
DataValue, 5.6000000000000005, 2.33931E-07, , 
DataValue, 5.7, 2.38928E-07, , 
DataValue, 5.8, 2.43976E-07, , 
DataValue, 5.9, 2.48994E-07, , 
DataValue, 6, 2.54241E-07, , 
DataValue, 6.1000000000000005, 2.59234E-07, , 
DataValue, 6.2, 2.64556E-07, , 
DataValue, 6.3, 2.69748E-07, , 
DataValue, 6.4, 2.74946E-07, , 
DataValue, 6.5, 2.8036E-07, , 
DataValue, 6.6000000000000005, 2.85482E-07, , 
DataValue, 6.7, 2.90841E-07, , 
DataValue, 6.8, 2.96266E-07, , 
DataValue, 6.9, 3.01541E-07, , 
DataValue, 7, 3.07119E-07, , 
DataValue, 7.1000000000000005, 3.12657E-07, , 
DataValue, 7.2, 3.17946E-07, , 
DataValue, 7.3, 3.23642E-07, , 
DataValue, 7.4, 3.29158E-07, , 
DataValue, 7.5, 3.349E-07, , 
DataValue, 7.6000000000000005, 3.40283E-07, , 
DataValue, 7.7, 3.46108E-07, , 
DataValue, 7.8, 3.51913E-07, , 
DataValue, 7.9, 3.57476E-07, , 
DataValue, 8, 3.63426E-07, , 
DataValue, 8.1, 3.69319E-07, , 
DataValue, 8.2, 3.75053E-07, , 
DataValue, 8.3, 3.81175E-07, , 
DataValue, 8.4, 3.86907E-07, , 
DataValue, 8.5, 3.92822E-07, , 
DataValue, 8.6, 3.98786E-07, , 
DataValue, 8.7000000000000011, 4.04628E-07, , 
DataValue, 8.8, 4.10913E-07, , 
DataValue, 8.9, 4.1668E-07, , 
DataValue, 9, 4.22976E-07, , 
DataValue, 9.1, 4.29161E-07, , 
DataValue, 9.2000000000000011, 4.35265E-07, , 
DataValue, 9.3, 4.41437E-07, , 
DataValue, 9.4, 4.47741E-07, , 
DataValue, 9.5, 4.5391599999999997E-07, , 
DataValue, 9.6, 4.60376E-07, , 
DataValue, 9.7000000000000011, 4.6639699999999996E-07, , 
DataValue, 9.8, 4.73091E-07, , 
DataValue, 9.9, 4.79265E-07, , 
DataValue, 10, 4.85795E-07, , 