
SetupTitle, PN-R
PrimitiveTest, I/V Sweep
TestParameter, Context.MainFrame, 4156B
TestParameter, Channel.UnitType, SMU, SMU
TestParameter, Channel.Unit, SMU1:HR, SMU2:HR
TestParameter, Channel.IName, I1, I2
TestParameter, Channel.VName, V1, V2
TestParameter, Channel.Mode, V, V
TestParameter, Channel.Func, VAR1, CONST
TestParameter, Channel.Index, 
TestParameter, Channel.Time, 
TestParameter, Measurement.Port.Unit, SMU1:HR, SMU2:HR
TestParameter, Measurement.Port.SeriesResistor, NONE, NONE
TestParameter, Measurement.Port.Filter, ON, ON
TestParameter, Measurement.Primary.Locus, Single
TestParameter, Measurement.Primary.Scale, LINEAR
TestParameter, Measurement.Primary.Start, 0
TestParameter, Measurement.Primary.Stop, -10
TestParameter, Measurement.Primary.Step, -0.1
TestParameter, Measurement.Primary.Compliance, 0.0001
TestParameter, Measurement.Primary.PowerCompliance, 0.001
TestParameter, Measurement.Aborting.Condition, STOP AT ANY ABNORMAL
TestParameter, Measurement.PostOutput.Value, START
TestParameter, Measurement.PostOutput.Retention, OFF
TestParameter, Measurement.Bias.Source, 0, 0
TestParameter, Measurement.Bias.Compliance, 0.0001, 0.005
TestParameter, Measurement.Monitor.Unit, SMU1:HR, SMU2:HR
TestParameter, Measurement.Monitor.Adc, HR ADC, HR ADC
TestParameter, Measurement.Monitor.RangingMode, LIMITED, LIMITED
TestParameter, Measurement.Monitor.RangeBoundary, 1nA, 1nA
TestParameter, Measurement.Monitor.RangeRating, BY FULL RANGE, BY FULL RANGE
TestParameter, Measurement.Monitor.RangeRatingCoeff, 50, 50
TestParameter, Measurement.Timing.Hold, 1
TestParameter, Measurement.Timing.Delay, 0.1
TestParameter, Measurement.Adc.HighResolution.AutoZero, OFF
TestParameter, Measurement.Adc.HighResolution.Mode, AUTO
TestParameter, Measurement.Adc.HighResolution.Coeff, 1
TestParameter, Measurement.Ag16440ASelector.SemiconductorRelay.Channel1, DEFAULT
TestParameter, Measurement.Ag16440ASelector.SemiconductorRelay.Channel3, DEFAULT
TestParameter, Output.Graph.Enabled, true
TestParameter, Output.Graph.XAxis.Data, V1
TestParameter, Output.Graph.XAxis.Scale, Linear
TestParameter, Output.Graph.XAxis.Left, 0
TestParameter, Output.Graph.XAxis.Right, 5
TestParameter, Output.Graph.YAxis.Data, I1
TestParameter, Output.Graph.YAxis.Scale, Linear
TestParameter, Output.Graph.YAxis.Bottom, -0.001
TestParameter, Output.Graph.YAxis.Top, 0.001
TestParameter, Output.Graph.YAxis.Group, 
TestParameter, Output.List.Data, V1, I1, V4, I4
TestParameter, AutoAnalysis.Interpolation, false
TestParameter, AutoAnalysis.Line1.Enabled, false
TestParameter, AutoAnalysis.Line1.Type, 1
TestParameter, AutoAnalysis.Line1.Fix, True
TestParameter, AutoAnalysis.Line1.YAxis, 0
TestParameter, AutoAnalysis.Line1.Point1.Type, 0
TestParameter, AutoAnalysis.Line1.Point1.XY.X, 
TestParameter, AutoAnalysis.Line1.Point1.XY.Y, 
TestParameter, AutoAnalysis.Line1.Point1.Data.Var, 
TestParameter, AutoAnalysis.Line1.Point1.Data.Condition, 
TestParameter, AutoAnalysis.Line1.Point1.Data.Start, false
TestParameter, AutoAnalysis.Line1.Point1.Data.StartVar, 
TestParameter, AutoAnalysis.Line1.Point1.Data.StartCondition, 
TestParameter, AutoAnalysis.Line1.Point2.Type, 0
TestParameter, AutoAnalysis.Line1.Point2.XY.X, 
TestParameter, AutoAnalysis.Line1.Point2.XY.Y, 
TestParameter, AutoAnalysis.Line1.Point2.Data.Var, 
TestParameter, AutoAnalysis.Line1.Point2.Data.Condition, 
TestParameter, AutoAnalysis.Line1.Point2.Data.Start, false
TestParameter, AutoAnalysis.Line1.Point2.Data.StartVar, 
TestParameter, AutoAnalysis.Line1.Point2.Data.StartCondition, 
TestParameter, AutoAnalysis.Line1.GradientExpr, 0
TestParameter, AutoAnalysis.Line2.Enabled, false
TestParameter, AutoAnalysis.Line2.Type, 1
TestParameter, AutoAnalysis.Line2.Fix, True
TestParameter, AutoAnalysis.Line2.YAxis, 0
TestParameter, AutoAnalysis.Line2.Point1.Type, 0
TestParameter, AutoAnalysis.Line2.Point1.XY.X, 
TestParameter, AutoAnalysis.Line2.Point1.XY.Y, 
TestParameter, AutoAnalysis.Line2.Point1.Data.Var, 
TestParameter, AutoAnalysis.Line2.Point1.Data.Condition, 
TestParameter, AutoAnalysis.Line2.Point1.Data.Start, false
TestParameter, AutoAnalysis.Line2.Point1.Data.StartVar, 
TestParameter, AutoAnalysis.Line2.Point1.Data.StartCondition, 
TestParameter, AutoAnalysis.Line2.Point2.Type, 0
TestParameter, AutoAnalysis.Line2.Point2.XY.X, 
TestParameter, AutoAnalysis.Line2.Point2.XY.Y, 
TestParameter, AutoAnalysis.Line2.Point2.Data.Var, 
TestParameter, AutoAnalysis.Line2.Point2.Data.Condition, 
TestParameter, AutoAnalysis.Line2.Point2.Data.Start, false
TestParameter, AutoAnalysis.Line2.Point2.Data.StartVar, 
TestParameter, AutoAnalysis.Line2.Point2.Data.StartCondition, 
TestParameter, AutoAnalysis.Line2.GradientExpr, 0
TestParameter, AutoAnalysis.Marker.Enabled, false
TestParameter, AutoAnalysis.Marker.Data.Var, 
TestParameter, AutoAnalysis.Marker.Data.Condition, 
TestParameter, AutoAnalysis.Marker.Data.Start, false
TestParameter, AutoAnalysis.Marker.Data.StartVar, 
TestParameter, AutoAnalysis.Marker.Data.StartCondition, 
MetaData, TestRecord.EntryPoint, true
MetaData, TestRecord.RecordTime, 03/04/2024 16:50:37
MetaData, TestRecord.TestTarget, 2306-1-C1-T514-R
MetaData, TestRecord.IterationIndex, 2
MetaData, TestRecord.Preservation, true
MetaData, TestRecord.Flag, 
MetaData, TestRecord.Remarks, 
MetaData, TestRecord.LinkKey, c011cf50-7229-4020-84d9-c37e8b63438f
Dimension1, 101, 101, 101, 101
Dimension2, 1, 1, 1, 1
DataName, V1, I1, V4, I4
DataValue, 0, -3.8740000000000007E-12, , 
DataValue, -0.1, -2.3045700000000002E-10, , 
DataValue, -0.2, -4.86997E-10, , 
DataValue, -0.3, -7.95623E-10, , 
DataValue, -0.4, -1.0785E-09, , 
DataValue, -0.5, -1.51177E-09, , 
DataValue, -0.6, -1.87551E-09, , 
DataValue, -0.70000000000000007, -2.41658E-09, , 
DataValue, -0.8, -2.9129E-09, , 
DataValue, -0.9, -3.48522E-09, , 
DataValue, -1, -9.98401E-09, , 
DataValue, -1.1, -1.2330299999999998E-08, , 
DataValue, -1.2, -1.09111E-08, , 
DataValue, -1.3, -2.5562099999999996E-08, , 
DataValue, -1.4000000000000001, -2.84627E-08, , 
DataValue, -1.5, -4.09469E-08, , 
DataValue, -1.6, -4.1643299999999994E-08, , 
DataValue, -1.7000000000000002, -4.5914299999999993E-08, , 
DataValue, -1.8, -4.7096899999999996E-08, , 
DataValue, -1.9000000000000001, -4.6340799999999994E-08, , 
DataValue, -2, -6.06846E-08, , 
DataValue, -2.1, -5.9133099999999996E-08, , 
DataValue, -2.2, -1.0572579999999999E-07, , 
DataValue, -2.3000000000000003, -1.91931E-05, , 
DataValue, -2.4, -2.56451E-05, , 
DataValue, -2.5, -2.75489E-05, , 
DataValue, -2.6, -2.6839200000000002E-05, , 
DataValue, -2.7, -2.97013E-05, , 
DataValue, -2.8000000000000003, -2.97308E-05, , 
DataValue, -2.9, -3.18067E-05, , 
DataValue, -3, -3.4038800000000003E-05, , 
DataValue, -3.1, -3.49779E-05, , 
DataValue, -3.2, -3.52854E-05, , 
DataValue, -3.3000000000000003, -3.90419E-05, , 
DataValue, -3.4, -4.19059E-05, , 
DataValue, -3.5, -4.2423300000000004E-05, , 
DataValue, -3.6, -4.5177100000000005E-05, , 
DataValue, -3.7, -4.54498E-05, , 
DataValue, -3.8000000000000003, -4.78547E-05, , 
DataValue, -3.9, -4.9454000000000005E-05, , 
DataValue, -4, -5.01973E-05, , 
DataValue, -4.1, -5.10661E-05, , 
DataValue, -4.2, -5.1666600000000004E-05, , 
DataValue, -4.3, -5.3459100000000005E-05, , 
DataValue, -4.4, -5.4095800000000005E-05, , 
DataValue, -4.5, -5.58659E-05, , 
DataValue, -4.6000000000000005, -5.6379300000000004E-05, , 
DataValue, -4.7, -5.8413100000000005E-05, , 
DataValue, -4.8, -5.9157300000000004E-05, , 
DataValue, -4.9, -5.9836E-05, , 
DataValue, -5, -6.08443E-05, , 
DataValue, -5.1000000000000005, -6.21455E-05, , 
DataValue, -5.2, -6.39963E-05, , 
DataValue, -5.3, -6.54309E-05, , 
DataValue, -5.4, -6.69173E-05, , 
DataValue, -5.5, -6.67269E-05, , 
DataValue, -5.6000000000000005, -6.80795E-05, , 
DataValue, -5.7, -6.9542600000000007E-05, , 
DataValue, -5.8, -7.06832E-05, , 
DataValue, -5.9, -7.20236E-05, , 
DataValue, -6, -7.28801E-05, , 
DataValue, -6.1000000000000005, -7.3720600000000007E-05, , 
DataValue, -6.2, -7.50265E-05, , 
DataValue, -6.3, -7.59331E-05, , 
DataValue, -6.4, -7.6875900000000007E-05, , 
DataValue, -6.5, -7.80525E-05, , 
DataValue, -6.6000000000000005, -7.97283E-05, , 
DataValue, -6.7, -8.10277E-05, , 
DataValue, -6.8, -8.10312E-05, , 
DataValue, -6.9, -8.2846900000000008E-05, , 
DataValue, -7, -8.48589E-05, , 
DataValue, -7.1000000000000005, -8.62042E-05, , 
DataValue, -7.2, -8.7718E-05, , 
DataValue, -7.3, -8.86515E-05, , 
DataValue, -7.4, -8.93773E-05, , 
DataValue, -7.5, -9.06724E-05, , 
DataValue, -7.6000000000000005, -9.23573E-05, , 
DataValue, -7.7, -9.28797E-05, , 
DataValue, -7.8, -9.4398100000000007E-05, , 
DataValue, -7.9, -9.57991E-05, , 
DataValue, -8, -9.84608E-05, , 
DataValue, -8.1, -9.99441E-05, , 
DataValue, -8.2, , , 