
SetupTitle, PN-R
PrimitiveTest, I/V Sweep
TestParameter, Context.MainFrame, 4156B
TestParameter, Channel.UnitType, SMU, SMU
TestParameter, Channel.Unit, SMU1:HR, SMU2:HR
TestParameter, Channel.IName, I1, I2
TestParameter, Channel.VName, V1, V2
TestParameter, Channel.Mode, V, V
TestParameter, Channel.Func, VAR1, CONST
TestParameter, Channel.Index, 
TestParameter, Channel.Time, 
TestParameter, Measurement.Port.Unit, SMU1:HR, SMU2:HR
TestParameter, Measurement.Port.SeriesResistor, NONE, NONE
TestParameter, Measurement.Port.Filter, ON, ON
TestParameter, Measurement.Primary.Locus, Single
TestParameter, Measurement.Primary.Scale, LINEAR
TestParameter, Measurement.Primary.Start, 0
TestParameter, Measurement.Primary.Stop, -10
TestParameter, Measurement.Primary.Step, -0.1
TestParameter, Measurement.Primary.Compliance, 0.0001
TestParameter, Measurement.Primary.PowerCompliance, 0.001
TestParameter, Measurement.Aborting.Condition, STOP AT ANY ABNORMAL
TestParameter, Measurement.PostOutput.Value, START
TestParameter, Measurement.PostOutput.Retention, OFF
TestParameter, Measurement.Bias.Source, 0, 0
TestParameter, Measurement.Bias.Compliance, 0.0001, 0.005
TestParameter, Measurement.Monitor.Unit, SMU1:HR, SMU2:HR
TestParameter, Measurement.Monitor.Adc, HR ADC, HR ADC
TestParameter, Measurement.Monitor.RangingMode, LIMITED, LIMITED
TestParameter, Measurement.Monitor.RangeBoundary, 1nA, 1nA
TestParameter, Measurement.Monitor.RangeRating, BY FULL RANGE, BY FULL RANGE
TestParameter, Measurement.Monitor.RangeRatingCoeff, 50, 50
TestParameter, Measurement.Timing.Hold, 1
TestParameter, Measurement.Timing.Delay, 0.1
TestParameter, Measurement.Adc.HighResolution.AutoZero, OFF
TestParameter, Measurement.Adc.HighResolution.Mode, AUTO
TestParameter, Measurement.Adc.HighResolution.Coeff, 1
TestParameter, Measurement.Ag16440ASelector.SemiconductorRelay.Channel1, DEFAULT
TestParameter, Measurement.Ag16440ASelector.SemiconductorRelay.Channel3, DEFAULT
TestParameter, Output.Graph.Enabled, true
TestParameter, Output.Graph.XAxis.Data, V1
TestParameter, Output.Graph.XAxis.Scale, Linear
TestParameter, Output.Graph.XAxis.Left, 0
TestParameter, Output.Graph.XAxis.Right, 5
TestParameter, Output.Graph.YAxis.Data, I1
TestParameter, Output.Graph.YAxis.Scale, Linear
TestParameter, Output.Graph.YAxis.Bottom, -0.001
TestParameter, Output.Graph.YAxis.Top, 0.001
TestParameter, Output.Graph.YAxis.Group, 
TestParameter, Output.List.Data, V1, I1, V4, I4
TestParameter, AutoAnalysis.Interpolation, false
TestParameter, AutoAnalysis.Line1.Enabled, false
TestParameter, AutoAnalysis.Line1.Type, 1
TestParameter, AutoAnalysis.Line1.Fix, True
TestParameter, AutoAnalysis.Line1.YAxis, 0
TestParameter, AutoAnalysis.Line1.Point1.Type, 0
TestParameter, AutoAnalysis.Line1.Point1.XY.X, 
TestParameter, AutoAnalysis.Line1.Point1.XY.Y, 
TestParameter, AutoAnalysis.Line1.Point1.Data.Var, 
TestParameter, AutoAnalysis.Line1.Point1.Data.Condition, 
TestParameter, AutoAnalysis.Line1.Point1.Data.Start, false
TestParameter, AutoAnalysis.Line1.Point1.Data.StartVar, 
TestParameter, AutoAnalysis.Line1.Point1.Data.StartCondition, 
TestParameter, AutoAnalysis.Line1.Point2.Type, 0
TestParameter, AutoAnalysis.Line1.Point2.XY.X, 
TestParameter, AutoAnalysis.Line1.Point2.XY.Y, 
TestParameter, AutoAnalysis.Line1.Point2.Data.Var, 
TestParameter, AutoAnalysis.Line1.Point2.Data.Condition, 
TestParameter, AutoAnalysis.Line1.Point2.Data.Start, false
TestParameter, AutoAnalysis.Line1.Point2.Data.StartVar, 
TestParameter, AutoAnalysis.Line1.Point2.Data.StartCondition, 
TestParameter, AutoAnalysis.Line1.GradientExpr, 0
TestParameter, AutoAnalysis.Line2.Enabled, false
TestParameter, AutoAnalysis.Line2.Type, 1
TestParameter, AutoAnalysis.Line2.Fix, True
TestParameter, AutoAnalysis.Line2.YAxis, 0
TestParameter, AutoAnalysis.Line2.Point1.Type, 0
TestParameter, AutoAnalysis.Line2.Point1.XY.X, 
TestParameter, AutoAnalysis.Line2.Point1.XY.Y, 
TestParameter, AutoAnalysis.Line2.Point1.Data.Var, 
TestParameter, AutoAnalysis.Line2.Point1.Data.Condition, 
TestParameter, AutoAnalysis.Line2.Point1.Data.Start, false
TestParameter, AutoAnalysis.Line2.Point1.Data.StartVar, 
TestParameter, AutoAnalysis.Line2.Point1.Data.StartCondition, 
TestParameter, AutoAnalysis.Line2.Point2.Type, 0
TestParameter, AutoAnalysis.Line2.Point2.XY.X, 
TestParameter, AutoAnalysis.Line2.Point2.XY.Y, 
TestParameter, AutoAnalysis.Line2.Point2.Data.Var, 
TestParameter, AutoAnalysis.Line2.Point2.Data.Condition, 
TestParameter, AutoAnalysis.Line2.Point2.Data.Start, false
TestParameter, AutoAnalysis.Line2.Point2.Data.StartVar, 
TestParameter, AutoAnalysis.Line2.Point2.Data.StartCondition, 
TestParameter, AutoAnalysis.Line2.GradientExpr, 0
TestParameter, AutoAnalysis.Marker.Enabled, false
TestParameter, AutoAnalysis.Marker.Data.Var, 
TestParameter, AutoAnalysis.Marker.Data.Condition, 
TestParameter, AutoAnalysis.Marker.Data.Start, false
TestParameter, AutoAnalysis.Marker.Data.StartVar, 
TestParameter, AutoAnalysis.Marker.Data.StartCondition, 
MetaData, TestRecord.EntryPoint, true
MetaData, TestRecord.RecordTime, 03/04/2024 15:28:24
MetaData, TestRecord.TestTarget, 2306-1-C1-T601-R
MetaData, TestRecord.IterationIndex, 2
MetaData, TestRecord.Preservation, true
MetaData, TestRecord.Flag, 
MetaData, TestRecord.Remarks, 
MetaData, TestRecord.LinkKey, 52b430ed-443b-4946-8aa1-7b80f0c74ed2
Dimension1, 101, 101, 101, 101
Dimension2, 1, 1, 1, 1
DataName, V1, I1, V4, I4
DataValue, 0, 7.1500000000000008E-13, , 
DataValue, -0.1, -1.6865E-11, , 
DataValue, -0.2, -2.2147000000000002E-11, , 
DataValue, -0.3, -2.5842000000000002E-11, , 
DataValue, -0.4, -2.917E-11, , 
DataValue, -0.5, -3.2329000000000004E-11, , 
DataValue, -0.6, -3.5433E-11, , 
DataValue, -0.70000000000000007, -3.7697E-11, , 
DataValue, -0.8, -4.02E-11, , 
DataValue, -0.9, -4.2313E-11, , 
DataValue, -1, -4.5752E-11, , 
DataValue, -1.1, -4.8208E-11, , 
DataValue, -1.2, -5.0506000000000006E-11, , 
DataValue, -1.3, -5.2785E-11, , 
DataValue, -1.4000000000000001, -5.4800000000000007E-11, , 
DataValue, -1.5, -5.7786000000000006E-11, , 
DataValue, -1.6, -5.9804E-11, , 
DataValue, -1.7000000000000002, -6.2816E-11, , 
DataValue, -1.8, -6.4463E-11, , 
DataValue, -1.9000000000000001, -6.7095E-11, , 
DataValue, -2, -6.9218E-11, , 
DataValue, -2.1, -7.1427E-11, , 
DataValue, -2.2, -7.3337E-11, , 
DataValue, -2.3000000000000003, -7.5642E-11, , 
DataValue, -2.4, -7.6995E-11, , 
DataValue, -2.5, -7.9235000000000011E-11, , 
DataValue, -2.6, -8.039800000000001E-11, , 
DataValue, -2.7, -8.2103E-11, , 
DataValue, -2.8000000000000003, -8.3561E-11, , 
DataValue, -2.9, -8.5306E-11, , 
DataValue, -3, -8.6541E-11, , 
DataValue, -3.1, -8.8672000000000007E-11, , 
DataValue, -3.2, -9.0481E-11, , 
DataValue, -3.3000000000000003, -9.1925000000000008E-11, , 
DataValue, -3.4, -9.3837000000000009E-11, , 
DataValue, -3.5, -9.6105000000000013E-11, , 
DataValue, -3.6, -9.7745000000000007E-11, , 
DataValue, -3.7, -9.9297000000000009E-11, , 
DataValue, -3.8000000000000003, -1.01017E-10, , 
DataValue, -3.9, -1.0328700000000001E-10, , 
DataValue, -4, -1.0557200000000001E-10, , 
DataValue, -4.1, -1.06346E-10, , 
DataValue, -4.2, -1.07878E-10, , 
DataValue, -4.3, -1.1003500000000001E-10, , 
DataValue, -4.4, -1.1249700000000001E-10, , 
DataValue, -4.5, -1.16064E-10, , 
DataValue, -4.6000000000000005, -1.17654E-10, , 
DataValue, -4.7, -1.19907E-10, , 
DataValue, -4.8, -1.2134600000000002E-10, , 
DataValue, -4.9, -1.23207E-10, , 
DataValue, -5, -1.25847E-10, , 
DataValue, -5.1000000000000005, -1.26163E-10, , 
DataValue, -5.2, -1.28294E-10, , 
DataValue, -5.3, -1.3055800000000002E-10, , 
DataValue, -5.4, -1.325E-10, , 
DataValue, -5.5, -1.36076E-10, , 
DataValue, -5.6000000000000005, -1.41111E-10, , 
DataValue, -5.7, -1.4447600000000002E-10, , 
DataValue, -5.8, -1.5154800000000002E-10, , 
DataValue, -5.9, -1.5575E-10, , 
DataValue, -6, -1.63506E-10, , 
DataValue, -6.1000000000000005, -1.70629E-10, , 
DataValue, -6.2, -1.7509700000000002E-10, , 
DataValue, -6.3, -1.85126E-10, , 
DataValue, -6.4, -1.86296E-10, , 
DataValue, -6.5, -1.93745E-10, , 
DataValue, -6.6000000000000005, -1.9938600000000001E-10, , 
DataValue, -6.7, -2.1373700000000003E-10, , 
DataValue, -6.8, -2.3477900000000003E-10, , 
DataValue, -6.9, -2.6036700000000003E-10, , 
DataValue, -7, -2.7083700000000004E-10, , 
DataValue, -7.1000000000000005, -2.8892E-10, , 
DataValue, -7.2, -3.0483300000000005E-10, , 
DataValue, -7.3, -3.2468200000000003E-10, , 
DataValue, -7.4, -3.3422E-10, , 
DataValue, -7.5, -3.42472E-10, , 
DataValue, -7.6000000000000005, -3.5042800000000003E-10, , 
DataValue, -7.7, -3.5711200000000004E-10, , 
DataValue, -7.8, -3.6567500000000003E-10, , 
DataValue, -7.9, -3.7440700000000003E-10, , 
DataValue, -8, -3.8365200000000003E-10, , 
DataValue, -8.1, -3.90839E-10, , 
DataValue, -8.2, -4.0001600000000005E-10, , 
DataValue, -8.3, -4.0580500000000003E-10, , 
DataValue, -8.4, -4.1219300000000003E-10, , 
DataValue, -8.5, -4.1874600000000004E-10, , 
DataValue, -8.6, -4.2471200000000004E-10, , 
DataValue, -8.7000000000000011, -4.2913600000000005E-10, , 
DataValue, -8.8, -4.36533E-10, , 
DataValue, -8.9, -4.4303900000000005E-10, , 
DataValue, -9, -4.4871100000000005E-10, , 
DataValue, -9.1, -4.5432100000000005E-10, , 
DataValue, -9.2000000000000011, -4.6340700000000003E-10, , 
DataValue, -9.3, -4.70807E-10, , 
DataValue, -9.4, -4.7639400000000008E-10, , 
DataValue, -9.5, -4.8164700000000006E-10, , 
DataValue, -9.6, -4.8703400000000006E-10, , 
DataValue, -9.7000000000000011, -4.9071200000000007E-10, , 
DataValue, -9.8, -4.94934E-10, , 
DataValue, -9.9, -4.9796900000000008E-10, , 
DataValue, -10, -5.00659E-10, , 