
SetupTitle, PN-R
PrimitiveTest, I/V Sweep
TestParameter, Context.MainFrame, 4156B
TestParameter, Channel.UnitType, SMU, SMU
TestParameter, Channel.Unit, SMU1:HR, SMU2:HR
TestParameter, Channel.IName, I1, I2
TestParameter, Channel.VName, V1, V2
TestParameter, Channel.Mode, V, V
TestParameter, Channel.Func, VAR1, CONST
TestParameter, Channel.Index, 
TestParameter, Channel.Time, 
TestParameter, Measurement.Port.Unit, SMU1:HR, SMU2:HR
TestParameter, Measurement.Port.SeriesResistor, NONE, NONE
TestParameter, Measurement.Port.Filter, ON, ON
TestParameter, Measurement.Primary.Locus, Single
TestParameter, Measurement.Primary.Scale, LINEAR
TestParameter, Measurement.Primary.Start, 0
TestParameter, Measurement.Primary.Stop, -10
TestParameter, Measurement.Primary.Step, -0.1
TestParameter, Measurement.Primary.Compliance, 0.0001
TestParameter, Measurement.Primary.PowerCompliance, 0.001
TestParameter, Measurement.Aborting.Condition, STOP AT ANY ABNORMAL
TestParameter, Measurement.PostOutput.Value, START
TestParameter, Measurement.PostOutput.Retention, OFF
TestParameter, Measurement.Bias.Source, 0, 0
TestParameter, Measurement.Bias.Compliance, 0.0001, 0.005
TestParameter, Measurement.Monitor.Unit, SMU1:HR, SMU2:HR
TestParameter, Measurement.Monitor.Adc, HR ADC, HR ADC
TestParameter, Measurement.Monitor.RangingMode, LIMITED, LIMITED
TestParameter, Measurement.Monitor.RangeBoundary, 1nA, 1nA
TestParameter, Measurement.Monitor.RangeRating, BY FULL RANGE, BY FULL RANGE
TestParameter, Measurement.Monitor.RangeRatingCoeff, 50, 50
TestParameter, Measurement.Timing.Hold, 1
TestParameter, Measurement.Timing.Delay, 0.1
TestParameter, Measurement.Adc.HighResolution.AutoZero, OFF
TestParameter, Measurement.Adc.HighResolution.Mode, AUTO
TestParameter, Measurement.Adc.HighResolution.Coeff, 1
TestParameter, Measurement.Ag16440ASelector.SemiconductorRelay.Channel1, DEFAULT
TestParameter, Measurement.Ag16440ASelector.SemiconductorRelay.Channel3, DEFAULT
TestParameter, Output.Graph.Enabled, true
TestParameter, Output.Graph.XAxis.Data, V1
TestParameter, Output.Graph.XAxis.Scale, Linear
TestParameter, Output.Graph.XAxis.Left, 0
TestParameter, Output.Graph.XAxis.Right, 5
TestParameter, Output.Graph.YAxis.Data, I1
TestParameter, Output.Graph.YAxis.Scale, Linear
TestParameter, Output.Graph.YAxis.Bottom, -0.001
TestParameter, Output.Graph.YAxis.Top, 0.001
TestParameter, Output.Graph.YAxis.Group, 
TestParameter, Output.List.Data, V1, I1, V4, I4
TestParameter, AutoAnalysis.Interpolation, false
TestParameter, AutoAnalysis.Line1.Enabled, false
TestParameter, AutoAnalysis.Line1.Type, 1
TestParameter, AutoAnalysis.Line1.Fix, True
TestParameter, AutoAnalysis.Line1.YAxis, 0
TestParameter, AutoAnalysis.Line1.Point1.Type, 0
TestParameter, AutoAnalysis.Line1.Point1.XY.X, 
TestParameter, AutoAnalysis.Line1.Point1.XY.Y, 
TestParameter, AutoAnalysis.Line1.Point1.Data.Var, 
TestParameter, AutoAnalysis.Line1.Point1.Data.Condition, 
TestParameter, AutoAnalysis.Line1.Point1.Data.Start, false
TestParameter, AutoAnalysis.Line1.Point1.Data.StartVar, 
TestParameter, AutoAnalysis.Line1.Point1.Data.StartCondition, 
TestParameter, AutoAnalysis.Line1.Point2.Type, 0
TestParameter, AutoAnalysis.Line1.Point2.XY.X, 
TestParameter, AutoAnalysis.Line1.Point2.XY.Y, 
TestParameter, AutoAnalysis.Line1.Point2.Data.Var, 
TestParameter, AutoAnalysis.Line1.Point2.Data.Condition, 
TestParameter, AutoAnalysis.Line1.Point2.Data.Start, false
TestParameter, AutoAnalysis.Line1.Point2.Data.StartVar, 
TestParameter, AutoAnalysis.Line1.Point2.Data.StartCondition, 
TestParameter, AutoAnalysis.Line1.GradientExpr, 0
TestParameter, AutoAnalysis.Line2.Enabled, false
TestParameter, AutoAnalysis.Line2.Type, 1
TestParameter, AutoAnalysis.Line2.Fix, True
TestParameter, AutoAnalysis.Line2.YAxis, 0
TestParameter, AutoAnalysis.Line2.Point1.Type, 0
TestParameter, AutoAnalysis.Line2.Point1.XY.X, 
TestParameter, AutoAnalysis.Line2.Point1.XY.Y, 
TestParameter, AutoAnalysis.Line2.Point1.Data.Var, 
TestParameter, AutoAnalysis.Line2.Point1.Data.Condition, 
TestParameter, AutoAnalysis.Line2.Point1.Data.Start, false
TestParameter, AutoAnalysis.Line2.Point1.Data.StartVar, 
TestParameter, AutoAnalysis.Line2.Point1.Data.StartCondition, 
TestParameter, AutoAnalysis.Line2.Point2.Type, 0
TestParameter, AutoAnalysis.Line2.Point2.XY.X, 
TestParameter, AutoAnalysis.Line2.Point2.XY.Y, 
TestParameter, AutoAnalysis.Line2.Point2.Data.Var, 
TestParameter, AutoAnalysis.Line2.Point2.Data.Condition, 
TestParameter, AutoAnalysis.Line2.Point2.Data.Start, false
TestParameter, AutoAnalysis.Line2.Point2.Data.StartVar, 
TestParameter, AutoAnalysis.Line2.Point2.Data.StartCondition, 
TestParameter, AutoAnalysis.Line2.GradientExpr, 0
TestParameter, AutoAnalysis.Marker.Enabled, false
TestParameter, AutoAnalysis.Marker.Data.Var, 
TestParameter, AutoAnalysis.Marker.Data.Condition, 
TestParameter, AutoAnalysis.Marker.Data.Start, false
TestParameter, AutoAnalysis.Marker.Data.StartVar, 
TestParameter, AutoAnalysis.Marker.Data.StartCondition, 
MetaData, TestRecord.EntryPoint, true
MetaData, TestRecord.RecordTime, 03/04/2024 16:06:59
MetaData, TestRecord.TestTarget, 2306-1-C1-T604-R
MetaData, TestRecord.IterationIndex, 1
MetaData, TestRecord.Preservation, true
MetaData, TestRecord.Flag, 
MetaData, TestRecord.Remarks, 
MetaData, TestRecord.LinkKey, 9e1acb5c-6d55-43b7-9065-104ac10b1724
Dimension1, 101, 101, 101, 101
Dimension2, 1, 1, 1, 1
DataName, V1, I1, V4, I4
DataValue, 0, -3.3000000000000005E-14, , 
DataValue, -0.1, -1.324E-12, , 
DataValue, -0.2, -1.7560000000000002E-12, , 
DataValue, -0.3, -2.757E-12, , 
DataValue, -0.4, -3.2950000000000004E-12, , 
DataValue, -0.5, -4.162E-12, , 
DataValue, -0.6, -5.0290000000000005E-12, , 
DataValue, -0.70000000000000007, -5.4750000000000008E-12, , 
DataValue, -0.8, -5.5890000000000005E-12, , 
DataValue, -0.9, -4.9840000000000006E-12, , 
DataValue, -1, -4.807E-12, , 
DataValue, -1.1, -4.115E-12, , 
DataValue, -1.2, -2.3760000000000004E-12, , 
DataValue, -1.3, -1.2130000000000002E-12, , 
DataValue, -1.4000000000000001, -9.54E-13, , 
DataValue, -1.5, -7.71E-13, , 
DataValue, -1.6, -6.410000000000001E-13, , 
DataValue, -1.7000000000000002, -5.7600000000000007E-13, , 
DataValue, -1.8, -1.7760000000000001E-12, , 
DataValue, -1.9000000000000001, -2.85E-12, , 
DataValue, -2, -4.291E-12, , 
DataValue, -2.1, -2.9860000000000004E-12, , 
DataValue, -2.2, -4.176E-12, , 
DataValue, -2.3000000000000003, -5.285E-12, , 
DataValue, -2.4, -3.3450000000000004E-12, , 
DataValue, -2.5, -8.1730000000000008E-12, , 
DataValue, -2.6, -7.908E-12, , 
DataValue, -2.7, -7.439E-12, , 
DataValue, -2.8000000000000003, -7.0450000000000008E-12, , 
DataValue, -2.9, -1.0296E-11, , 
DataValue, -3, -8.034E-12, , 
DataValue, -3.1, -8.4060000000000011E-12, , 
DataValue, -3.2, -8.788E-12, , 
DataValue, -3.3000000000000003, -1.2497E-11, , 
DataValue, -3.4, -9.112E-12, , 
DataValue, -3.5, -1.1107000000000001E-11, , 
DataValue, -3.6, -1.0208E-11, , 
DataValue, -3.7, -1.0509E-11, , 
DataValue, -3.8000000000000003, -1.1086E-11, , 
DataValue, -3.9, -1.1831000000000002E-11, , 
DataValue, -4, -1.2843000000000001E-11, , 
DataValue, -4.1, -1.0045000000000001E-11, , 
DataValue, -4.2, -1.2229E-11, , 
DataValue, -4.3, -1.0276E-11, , 
DataValue, -4.4, -1.3958000000000002E-11, , 
DataValue, -4.5, -1.0122E-11, , 
DataValue, -4.6000000000000005, -1.2224000000000001E-11, , 
DataValue, -4.7, -9.2780000000000015E-12, , 
DataValue, -4.8, -1.2967000000000002E-11, , 
DataValue, -4.9, -9.6520000000000013E-12, , 
DataValue, -5, -1.3404E-11, , 
DataValue, -5.1000000000000005, -1.2575000000000001E-11, , 
DataValue, -5.2, -1.2505000000000001E-11, , 
DataValue, -5.3, -1.1708000000000001E-11, , 
DataValue, -5.4, -1.1348E-11, , 
DataValue, -5.5, -1.2251E-11, , 
DataValue, -5.6000000000000005, -1.1463000000000002E-11, , 
DataValue, -5.7, -1.2975E-11, , 
DataValue, -5.8, -1.0424E-11, , 
DataValue, -5.9, -1.2830000000000001E-11, , 
DataValue, -6, -1.1947000000000002E-11, , 
DataValue, -6.1000000000000005, -1.3440000000000001E-11, , 
DataValue, -6.2, -1.1462000000000001E-11, , 
DataValue, -6.3, -1.3790000000000002E-11, , 
DataValue, -6.4, -9.9330000000000014E-12, , 
DataValue, -6.5, -1.3896000000000001E-11, , 
DataValue, -6.6000000000000005, -1.2467000000000002E-11, , 
DataValue, -6.7, -1.0583E-11, , 
DataValue, -6.8, -1.3444000000000001E-11, , 
DataValue, -6.9, -1.2575000000000001E-11, , 
DataValue, -7, -1.3405000000000001E-11, , 
DataValue, -7.1000000000000005, -1.2059000000000001E-11, , 
DataValue, -7.2, -1.3360000000000001E-11, , 
DataValue, -7.3, -9.841E-12, , 
DataValue, -7.4, -1.2806000000000002E-11, , 
DataValue, -7.5, -1.1746000000000001E-11, , 
DataValue, -7.6000000000000005, -1.2573000000000002E-11, , 
DataValue, -7.7, -1.2037000000000001E-11, , 
DataValue, -7.8, -1.3091E-11, , 
DataValue, -7.9, -1.2816E-11, , 
DataValue, -8, -1.1337000000000002E-11, , 
DataValue, -8.1, -1.1908000000000001E-11, , 
DataValue, -8.2, -1.1441E-11, , 
DataValue, -8.3, -1.3191E-11, , 
DataValue, -8.4, -1.3687000000000002E-11, , 
DataValue, -8.5, -1.546E-11, , 
DataValue, -8.6, -1.1962000000000001E-11, , 
DataValue, -8.7000000000000011, -1.3343E-11, , 
DataValue, -8.8, -1.1445E-11, , 
DataValue, -8.9, -1.3349E-11, , 
DataValue, -9, -1.1653000000000001E-11, , 
DataValue, -9.1, -1.3180000000000002E-11, , 
DataValue, -9.2000000000000011, -1.1219E-11, , 
DataValue, -9.3, -1.4616E-11, , 
DataValue, -9.4, -1.1386E-11, , 
DataValue, -9.5, -1.3663000000000001E-11, , 
DataValue, -9.6, -1.3672E-11, , 
DataValue, -9.7000000000000011, -1.2792000000000001E-11, , 
DataValue, -9.8, -1.1997E-11, , 
DataValue, -9.9, -1.2743000000000001E-11, , 
DataValue, -10, -1.2842E-11, , 