
SetupTitle, PN-R
PrimitiveTest, I/V Sweep
TestParameter, Context.MainFrame, 4156B
TestParameter, Channel.UnitType, SMU, SMU
TestParameter, Channel.Unit, SMU1:HR, SMU2:HR
TestParameter, Channel.IName, I1, I2
TestParameter, Channel.VName, V1, V2
TestParameter, Channel.Mode, V, V
TestParameter, Channel.Func, VAR1, CONST
TestParameter, Channel.Index, 
TestParameter, Channel.Time, 
TestParameter, Measurement.Port.Unit, SMU1:HR, SMU2:HR
TestParameter, Measurement.Port.SeriesResistor, NONE, NONE
TestParameter, Measurement.Port.Filter, ON, ON
TestParameter, Measurement.Primary.Locus, Single
TestParameter, Measurement.Primary.Scale, LINEAR
TestParameter, Measurement.Primary.Start, 0
TestParameter, Measurement.Primary.Stop, -10
TestParameter, Measurement.Primary.Step, -0.1
TestParameter, Measurement.Primary.Compliance, 0.0001
TestParameter, Measurement.Primary.PowerCompliance, 0.001
TestParameter, Measurement.Aborting.Condition, STOP AT ANY ABNORMAL
TestParameter, Measurement.PostOutput.Value, START
TestParameter, Measurement.PostOutput.Retention, OFF
TestParameter, Measurement.Bias.Source, 0, 0
TestParameter, Measurement.Bias.Compliance, 0.0001, 0.005
TestParameter, Measurement.Monitor.Unit, SMU1:HR, SMU2:HR
TestParameter, Measurement.Monitor.Adc, HR ADC, HR ADC
TestParameter, Measurement.Monitor.RangingMode, LIMITED, LIMITED
TestParameter, Measurement.Monitor.RangeBoundary, 1nA, 1nA
TestParameter, Measurement.Monitor.RangeRating, BY FULL RANGE, BY FULL RANGE
TestParameter, Measurement.Monitor.RangeRatingCoeff, 50, 50
TestParameter, Measurement.Timing.Hold, 1
TestParameter, Measurement.Timing.Delay, 0.1
TestParameter, Measurement.Adc.HighResolution.AutoZero, OFF
TestParameter, Measurement.Adc.HighResolution.Mode, AUTO
TestParameter, Measurement.Adc.HighResolution.Coeff, 1
TestParameter, Measurement.Ag16440ASelector.SemiconductorRelay.Channel1, DEFAULT
TestParameter, Measurement.Ag16440ASelector.SemiconductorRelay.Channel3, DEFAULT
TestParameter, Output.Graph.Enabled, true
TestParameter, Output.Graph.XAxis.Data, V1
TestParameter, Output.Graph.XAxis.Scale, Linear
TestParameter, Output.Graph.XAxis.Left, 0
TestParameter, Output.Graph.XAxis.Right, 5
TestParameter, Output.Graph.YAxis.Data, I1
TestParameter, Output.Graph.YAxis.Scale, Linear
TestParameter, Output.Graph.YAxis.Bottom, -0.001
TestParameter, Output.Graph.YAxis.Top, 0.001
TestParameter, Output.Graph.YAxis.Group, 
TestParameter, Output.List.Data, V1, I1, V4, I4
TestParameter, AutoAnalysis.Interpolation, false
TestParameter, AutoAnalysis.Line1.Enabled, false
TestParameter, AutoAnalysis.Line1.Type, 1
TestParameter, AutoAnalysis.Line1.Fix, True
TestParameter, AutoAnalysis.Line1.YAxis, 0
TestParameter, AutoAnalysis.Line1.Point1.Type, 0
TestParameter, AutoAnalysis.Line1.Point1.XY.X, 
TestParameter, AutoAnalysis.Line1.Point1.XY.Y, 
TestParameter, AutoAnalysis.Line1.Point1.Data.Var, 
TestParameter, AutoAnalysis.Line1.Point1.Data.Condition, 
TestParameter, AutoAnalysis.Line1.Point1.Data.Start, false
TestParameter, AutoAnalysis.Line1.Point1.Data.StartVar, 
TestParameter, AutoAnalysis.Line1.Point1.Data.StartCondition, 
TestParameter, AutoAnalysis.Line1.Point2.Type, 0
TestParameter, AutoAnalysis.Line1.Point2.XY.X, 
TestParameter, AutoAnalysis.Line1.Point2.XY.Y, 
TestParameter, AutoAnalysis.Line1.Point2.Data.Var, 
TestParameter, AutoAnalysis.Line1.Point2.Data.Condition, 
TestParameter, AutoAnalysis.Line1.Point2.Data.Start, false
TestParameter, AutoAnalysis.Line1.Point2.Data.StartVar, 
TestParameter, AutoAnalysis.Line1.Point2.Data.StartCondition, 
TestParameter, AutoAnalysis.Line1.GradientExpr, 0
TestParameter, AutoAnalysis.Line2.Enabled, false
TestParameter, AutoAnalysis.Line2.Type, 1
TestParameter, AutoAnalysis.Line2.Fix, True
TestParameter, AutoAnalysis.Line2.YAxis, 0
TestParameter, AutoAnalysis.Line2.Point1.Type, 0
TestParameter, AutoAnalysis.Line2.Point1.XY.X, 
TestParameter, AutoAnalysis.Line2.Point1.XY.Y, 
TestParameter, AutoAnalysis.Line2.Point1.Data.Var, 
TestParameter, AutoAnalysis.Line2.Point1.Data.Condition, 
TestParameter, AutoAnalysis.Line2.Point1.Data.Start, false
TestParameter, AutoAnalysis.Line2.Point1.Data.StartVar, 
TestParameter, AutoAnalysis.Line2.Point1.Data.StartCondition, 
TestParameter, AutoAnalysis.Line2.Point2.Type, 0
TestParameter, AutoAnalysis.Line2.Point2.XY.X, 
TestParameter, AutoAnalysis.Line2.Point2.XY.Y, 
TestParameter, AutoAnalysis.Line2.Point2.Data.Var, 
TestParameter, AutoAnalysis.Line2.Point2.Data.Condition, 
TestParameter, AutoAnalysis.Line2.Point2.Data.Start, false
TestParameter, AutoAnalysis.Line2.Point2.Data.StartVar, 
TestParameter, AutoAnalysis.Line2.Point2.Data.StartCondition, 
TestParameter, AutoAnalysis.Line2.GradientExpr, 0
TestParameter, AutoAnalysis.Marker.Enabled, false
TestParameter, AutoAnalysis.Marker.Data.Var, 
TestParameter, AutoAnalysis.Marker.Data.Condition, 
TestParameter, AutoAnalysis.Marker.Data.Start, false
TestParameter, AutoAnalysis.Marker.Data.StartVar, 
TestParameter, AutoAnalysis.Marker.Data.StartCondition, 
MetaData, TestRecord.EntryPoint, true
MetaData, TestRecord.RecordTime, 03/12/2024 18:46:22
MetaData, TestRecord.TestTarget, 2306-1-C2-T112-R
MetaData, TestRecord.IterationIndex, 3
MetaData, TestRecord.Preservation, true
MetaData, TestRecord.Flag, 
MetaData, TestRecord.Remarks, 
MetaData, TestRecord.LinkKey, 7e7cd5d9-5e6f-4f42-b309-69b1f6fcf336
Dimension1, 101, 101, 101, 101
Dimension2, 1, 1, 1, 1
DataName, V1, I1, V4, I4
DataValue, 0, 3.183E-12, , 
DataValue, -0.1, -3.97E-12, , 
DataValue, -0.2, -9.889E-12, , 
DataValue, -0.3, -1.1457E-11, , 
DataValue, -0.4, -2.0905E-11, , 
DataValue, -0.5, -1.8735E-11, , 
DataValue, -0.6, -2.3354E-11, , 
DataValue, -0.70000000000000007, -1.8191000000000003E-11, , 
DataValue, -0.8, -1.475E-11, , 
DataValue, -0.9, -1.0814000000000001E-11, , 
DataValue, -1, -1.1183E-11, , 
DataValue, -1.1, -1.1143000000000001E-11, , 
DataValue, -1.2, -2.1022000000000003E-11, , 
DataValue, -1.3, -4.4220000000000003E-11, , 
DataValue, -1.4000000000000001, -1.49233E-09, , 
DataValue, -1.5, -7.4042E-10, , 
DataValue, -1.6, -1.01215E-09, , 
DataValue, -1.7000000000000002, -2.51941E-09, , 
DataValue, -1.8, -2.44763E-09, , 
DataValue, -1.9000000000000001, -2.768E-09, , 
DataValue, -2, -2.48233E-09, , 
DataValue, -2.1, -2.63543E-09, , 
DataValue, -2.2, -3.03855E-09, , 
DataValue, -2.3000000000000003, -2.66788E-09, , 
DataValue, -2.4, -3.31938E-09, , 
DataValue, -2.5, -3.15901E-09, , 
DataValue, -2.6, -2.71421E-09, , 
DataValue, -2.7, -3.52853E-09, , 
DataValue, -2.8000000000000003, -3.28425E-09, , 
DataValue, -2.9, -3.84583E-09, , 
DataValue, -3, -4.00517E-09, , 
DataValue, -3.1, -3.75599E-09, , 
DataValue, -3.2, -3.79195E-09, , 
DataValue, -3.3000000000000003, -3.55679E-09, , 
DataValue, -3.4, -4.00538E-09, , 
DataValue, -3.5, -3.72696E-09, , 
DataValue, -3.6, -4.25111E-09, , 
DataValue, -3.7, -4.04395E-09, , 
DataValue, -3.8000000000000003, -4.35342E-09, , 
DataValue, -3.9, -4.19114E-09, , 
DataValue, -4, -3.97396E-09, , 
DataValue, -4.1, -4.51335E-09, , 
DataValue, -4.2, -4.27576E-09, , 
DataValue, -4.3, -4.6142E-09, , 
DataValue, -4.4, -4.55401E-09, , 
DataValue, -4.5, -4.6307999999999994E-09, , 
DataValue, -4.6000000000000005, -4.76219E-09, , 
DataValue, -4.7, -4.81544E-09, , 
DataValue, -4.8, -4.71555E-09, , 
DataValue, -4.9, -4.69192E-09, , 
DataValue, -5, -4.95255E-09, , 
DataValue, -5.1000000000000005, -4.86593E-09, , 
DataValue, -5.2, -4.69122E-09, , 
DataValue, -5.3, -5.04147E-09, , 
DataValue, -5.4, -5.05732E-09, , 
DataValue, -5.5, -4.92826E-09, , 
DataValue, -5.6000000000000005, -5.22735E-09, , 
DataValue, -5.7, -4.92883E-09, , 
DataValue, -5.8, -5.13727E-09, , 
DataValue, -5.9, -5.36097E-09, , 
DataValue, -6, -5.24477E-09, , 
DataValue, -6.1000000000000005, -5.4514E-09, , 
DataValue, -6.2, -5.47084E-09, , 
DataValue, -6.3, -5.53677E-09, , 
DataValue, -6.4, -5.2138999999999991E-09, , 
DataValue, -6.5, -4.79001E-09, , 
DataValue, -6.6000000000000005, -5.69036E-09, , 
DataValue, -6.7, -5.70807E-09, , 
DataValue, -6.8, -5.74361E-09, , 
DataValue, -6.9, -5.79369E-09, , 
DataValue, -7, -5.766E-09, , 
DataValue, -7.1000000000000005, -5.87689E-09, , 
DataValue, -7.2, -5.91608E-09, , 
DataValue, -7.3, -5.9551E-09, , 
DataValue, -7.4, -5.65665E-09, , 
DataValue, -7.5, -6.03663E-09, , 
DataValue, -7.6000000000000005, -6.09501E-09, , 
DataValue, -7.7, -6.12165E-09, , 
DataValue, -7.8, -6.16164E-09, , 
DataValue, -7.9, -6.07726E-09, , 
DataValue, -8, -6.244E-09, , 
DataValue, -8.1, -6.29427E-09, , 
DataValue, -8.2, -6.32851E-09, , 
DataValue, -8.3, -6.36774E-09, , 
DataValue, -8.4, -6.41192E-09, , 
DataValue, -8.5, -6.43228E-09, , 
DataValue, -8.6, -6.49267E-09, , 
DataValue, -8.7000000000000011, -6.53073E-09, , 
DataValue, -8.8, -6.28363E-09, , 
DataValue, -8.9, -6.61402E-09, , 
DataValue, -9, -6.65459E-09, , 
DataValue, -9.1, -6.69468E-09, , 
DataValue, -9.2000000000000011, -6.73556E-09, , 
DataValue, -9.3, -6.77524E-09, , 
DataValue, -9.4, -6.8163E-09, , 
DataValue, -9.5, -6.8593E-09, , 
DataValue, -9.6, -6.66881E-09, , 
DataValue, -9.7000000000000011, -6.94007E-09, , 
DataValue, -9.8, -6.97888E-09, , 
DataValue, -9.9, -7.01885E-09, , 
DataValue, -10, -7.06289E-09, , 