
SetupTitle, PN-R
PrimitiveTest, I/V Sweep
TestParameter, Context.MainFrame, 4156B
TestParameter, Channel.UnitType, SMU, SMU
TestParameter, Channel.Unit, SMU1:HR, SMU2:HR
TestParameter, Channel.IName, I1, I2
TestParameter, Channel.VName, V1, V2
TestParameter, Channel.Mode, V, V
TestParameter, Channel.Func, VAR1, CONST
TestParameter, Channel.Index, 
TestParameter, Channel.Time, 
TestParameter, Measurement.Port.Unit, SMU1:HR, SMU2:HR
TestParameter, Measurement.Port.SeriesResistor, NONE, NONE
TestParameter, Measurement.Port.Filter, ON, ON
TestParameter, Measurement.Primary.Locus, Single
TestParameter, Measurement.Primary.Scale, LINEAR
TestParameter, Measurement.Primary.Start, 0
TestParameter, Measurement.Primary.Stop, -10
TestParameter, Measurement.Primary.Step, -0.2
TestParameter, Measurement.Primary.Compliance, 0.0001
TestParameter, Measurement.Primary.PowerCompliance, 0.001
TestParameter, Measurement.Aborting.Condition, STOP AT ANY ABNORMAL
TestParameter, Measurement.PostOutput.Value, START
TestParameter, Measurement.PostOutput.Retention, OFF
TestParameter, Measurement.Bias.Source, 0, 0
TestParameter, Measurement.Bias.Compliance, 0.0001, 0.005
TestParameter, Measurement.Monitor.Unit, SMU1:HR, SMU2:HR
TestParameter, Measurement.Monitor.Adc, HR ADC, HR ADC
TestParameter, Measurement.Monitor.RangingMode, LIMITED, LIMITED
TestParameter, Measurement.Monitor.RangeBoundary, 1nA, 1nA
TestParameter, Measurement.Monitor.RangeRating, BY FULL RANGE, BY FULL RANGE
TestParameter, Measurement.Monitor.RangeRatingCoeff, 50, 50
TestParameter, Measurement.Timing.Hold, 1
TestParameter, Measurement.Timing.Delay, 0.1
TestParameter, Measurement.Adc.HighResolution.AutoZero, OFF
TestParameter, Measurement.Adc.HighResolution.Mode, AUTO
TestParameter, Measurement.Adc.HighResolution.Coeff, 1
TestParameter, Measurement.Ag16440ASelector.SemiconductorRelay.Channel1, DEFAULT
TestParameter, Measurement.Ag16440ASelector.SemiconductorRelay.Channel3, DEFAULT
TestParameter, Output.Graph.Enabled, true
TestParameter, Output.Graph.XAxis.Data, V1
TestParameter, Output.Graph.XAxis.Scale, Linear
TestParameter, Output.Graph.XAxis.Left, 0
TestParameter, Output.Graph.XAxis.Right, 5
TestParameter, Output.Graph.YAxis.Data, I1
TestParameter, Output.Graph.YAxis.Scale, Linear
TestParameter, Output.Graph.YAxis.Bottom, -0.001
TestParameter, Output.Graph.YAxis.Top, 0.001
TestParameter, Output.Graph.YAxis.Group, 
TestParameter, Output.List.Data, V1, I1, V4, I4
TestParameter, AutoAnalysis.Interpolation, false
TestParameter, AutoAnalysis.Line1.Enabled, false
TestParameter, AutoAnalysis.Line1.Type, 1
TestParameter, AutoAnalysis.Line1.Fix, True
TestParameter, AutoAnalysis.Line1.YAxis, 0
TestParameter, AutoAnalysis.Line1.Point1.Type, 0
TestParameter, AutoAnalysis.Line1.Point1.XY.X, 
TestParameter, AutoAnalysis.Line1.Point1.XY.Y, 
TestParameter, AutoAnalysis.Line1.Point1.Data.Var, 
TestParameter, AutoAnalysis.Line1.Point1.Data.Condition, 
TestParameter, AutoAnalysis.Line1.Point1.Data.Start, false
TestParameter, AutoAnalysis.Line1.Point1.Data.StartVar, 
TestParameter, AutoAnalysis.Line1.Point1.Data.StartCondition, 
TestParameter, AutoAnalysis.Line1.Point2.Type, 0
TestParameter, AutoAnalysis.Line1.Point2.XY.X, 
TestParameter, AutoAnalysis.Line1.Point2.XY.Y, 
TestParameter, AutoAnalysis.Line1.Point2.Data.Var, 
TestParameter, AutoAnalysis.Line1.Point2.Data.Condition, 
TestParameter, AutoAnalysis.Line1.Point2.Data.Start, false
TestParameter, AutoAnalysis.Line1.Point2.Data.StartVar, 
TestParameter, AutoAnalysis.Line1.Point2.Data.StartCondition, 
TestParameter, AutoAnalysis.Line1.GradientExpr, 0
TestParameter, AutoAnalysis.Line2.Enabled, false
TestParameter, AutoAnalysis.Line2.Type, 1
TestParameter, AutoAnalysis.Line2.Fix, True
TestParameter, AutoAnalysis.Line2.YAxis, 0
TestParameter, AutoAnalysis.Line2.Point1.Type, 0
TestParameter, AutoAnalysis.Line2.Point1.XY.X, 
TestParameter, AutoAnalysis.Line2.Point1.XY.Y, 
TestParameter, AutoAnalysis.Line2.Point1.Data.Var, 
TestParameter, AutoAnalysis.Line2.Point1.Data.Condition, 
TestParameter, AutoAnalysis.Line2.Point1.Data.Start, false
TestParameter, AutoAnalysis.Line2.Point1.Data.StartVar, 
TestParameter, AutoAnalysis.Line2.Point1.Data.StartCondition, 
TestParameter, AutoAnalysis.Line2.Point2.Type, 0
TestParameter, AutoAnalysis.Line2.Point2.XY.X, 
TestParameter, AutoAnalysis.Line2.Point2.XY.Y, 
TestParameter, AutoAnalysis.Line2.Point2.Data.Var, 
TestParameter, AutoAnalysis.Line2.Point2.Data.Condition, 
TestParameter, AutoAnalysis.Line2.Point2.Data.Start, false
TestParameter, AutoAnalysis.Line2.Point2.Data.StartVar, 
TestParameter, AutoAnalysis.Line2.Point2.Data.StartCondition, 
TestParameter, AutoAnalysis.Line2.GradientExpr, 0
TestParameter, AutoAnalysis.Marker.Enabled, false
TestParameter, AutoAnalysis.Marker.Data.Var, 
TestParameter, AutoAnalysis.Marker.Data.Condition, 
TestParameter, AutoAnalysis.Marker.Data.Start, false
TestParameter, AutoAnalysis.Marker.Data.StartVar, 
TestParameter, AutoAnalysis.Marker.Data.StartCondition, 
MetaData, TestRecord.EntryPoint, true
MetaData, TestRecord.RecordTime, 03/12/2024 19:09:05
MetaData, TestRecord.TestTarget, 2306-1-C2-T314-R
MetaData, TestRecord.IterationIndex, 3
MetaData, TestRecord.Preservation, true
MetaData, TestRecord.Flag, 
MetaData, TestRecord.Remarks, 
MetaData, TestRecord.LinkKey, 837c3930-2c1e-49bd-a5fb-137d10d9766c
Dimension1, 51, 51, 51, 51
Dimension2, 1, 1, 1, 1
DataName, V1, I1, V4, I4
DataValue, 0, 2.9350000000000003E-12, , 
DataValue, -0.2, 1.3230000000000001E-12, , 
DataValue, -0.4, -8.405E-12, , 
DataValue, -0.6, -5.5050000000000005E-12, , 
DataValue, -0.8, -5.232E-12, , 
DataValue, -1, -2.4292000000000002E-11, , 
DataValue, -1.2, -1.6583000000000002E-11, , 
DataValue, -1.4000000000000001, -1.5393E-11, , 
DataValue, -1.6, -8.033E-12, , 
DataValue, -1.8, -8.088E-12, , 
DataValue, -2, -2.5188E-11, , 
DataValue, -2.2, -4.8454000000000007E-11, , 
DataValue, -2.4, -1.0818E-11, , 
DataValue, -2.6, -7.473E-11, , 
DataValue, -2.8000000000000003, -3.3895E-11, , 
DataValue, -3, -8.4580000000000013E-12, , 
DataValue, -3.2, -1.3534000000000001E-11, , 
DataValue, -3.4, -5.6380000000000008E-12, , 
DataValue, -3.6, -1.7734000000000002E-11, , 
DataValue, -3.8000000000000003, -1.3444000000000001E-11, , 
DataValue, -4, -4.4071000000000005E-11, , 
DataValue, -4.2, -1.7239E-11, , 
DataValue, -4.4, -2.398E-11, , 
DataValue, -4.6000000000000005, -5.5172000000000006E-11, , 
DataValue, -4.8, -2.4572000000000003E-11, , 
DataValue, -5, -3.5656E-11, , 
DataValue, -5.2, -3.7432000000000004E-11, , 
DataValue, -5.4, -2.5778000000000003E-11, , 
DataValue, -5.6000000000000005, -1.5665E-11, , 
DataValue, -5.8, -2.3781000000000003E-11, , 
DataValue, -6, -4.8599000000000003E-11, , 
DataValue, -6.2, -2.1515000000000003E-11, , 
DataValue, -6.4, -2.9328E-11, , 
DataValue, -6.6000000000000005, -2.4889000000000002E-11, , 
DataValue, -6.8, -9.23E-12, , 
DataValue, -7, -1.1992000000000001E-11, , 
DataValue, -7.2, -1.9569E-11, , 
DataValue, -7.4, -1.3665E-11, , 
DataValue, -7.6000000000000005, -1.2405000000000001E-11, , 
DataValue, -7.8, -1.1998000000000001E-11, , 
DataValue, -8, -1.2075000000000001E-11, , 
DataValue, -8.2, -2.1950000000000002E-12, , 
DataValue, -8.4, -2.1118000000000003E-11, , 
DataValue, -8.6, -3.6773000000000006E-11, , 
DataValue, -8.8, -9.8590000000000015E-12, , 
DataValue, -9, -5.6668000000000005E-11, , 
DataValue, -9.2000000000000011, -3.7593E-11, , 
DataValue, -9.4, -1.8117E-11, , 
DataValue, -9.6, -2.8008E-11, , 
DataValue, -9.8, -1.0201000000000002E-11, , 
DataValue, -10, -3.9321E-11, , 