
SetupTitle, PN-R
PrimitiveTest, I/V Sweep
TestParameter, Context.MainFrame, 4156B
TestParameter, Channel.UnitType, SMU, SMU
TestParameter, Channel.Unit, SMU1:HR, SMU2:HR
TestParameter, Channel.IName, I1, I2
TestParameter, Channel.VName, V1, V2
TestParameter, Channel.Mode, V, V
TestParameter, Channel.Func, VAR1, CONST
TestParameter, Channel.Index, 
TestParameter, Channel.Time, 
TestParameter, Measurement.Port.Unit, SMU1:HR, SMU2:HR
TestParameter, Measurement.Port.SeriesResistor, NONE, NONE
TestParameter, Measurement.Port.Filter, ON, ON
TestParameter, Measurement.Primary.Locus, Single
TestParameter, Measurement.Primary.Scale, LINEAR
TestParameter, Measurement.Primary.Start, 0
TestParameter, Measurement.Primary.Stop, -10
TestParameter, Measurement.Primary.Step, -0.1
TestParameter, Measurement.Primary.Compliance, 0.0001
TestParameter, Measurement.Primary.PowerCompliance, 0.001
TestParameter, Measurement.Aborting.Condition, STOP AT ANY ABNORMAL
TestParameter, Measurement.PostOutput.Value, START
TestParameter, Measurement.PostOutput.Retention, OFF
TestParameter, Measurement.Bias.Source, 0, 0
TestParameter, Measurement.Bias.Compliance, 0.0001, 0.005
TestParameter, Measurement.Monitor.Unit, SMU1:HR, SMU2:HR
TestParameter, Measurement.Monitor.Adc, HR ADC, HR ADC
TestParameter, Measurement.Monitor.RangingMode, LIMITED, LIMITED
TestParameter, Measurement.Monitor.RangeBoundary, 1nA, 1nA
TestParameter, Measurement.Monitor.RangeRating, BY FULL RANGE, BY FULL RANGE
TestParameter, Measurement.Monitor.RangeRatingCoeff, 50, 50
TestParameter, Measurement.Timing.Hold, 1
TestParameter, Measurement.Timing.Delay, 0.1
TestParameter, Measurement.Adc.HighResolution.AutoZero, OFF
TestParameter, Measurement.Adc.HighResolution.Mode, AUTO
TestParameter, Measurement.Adc.HighResolution.Coeff, 1
TestParameter, Measurement.Ag16440ASelector.SemiconductorRelay.Channel1, DEFAULT
TestParameter, Measurement.Ag16440ASelector.SemiconductorRelay.Channel3, DEFAULT
TestParameter, Output.Graph.Enabled, true
TestParameter, Output.Graph.XAxis.Data, V1
TestParameter, Output.Graph.XAxis.Scale, Linear
TestParameter, Output.Graph.XAxis.Left, 0
TestParameter, Output.Graph.XAxis.Right, 5
TestParameter, Output.Graph.YAxis.Data, I1
TestParameter, Output.Graph.YAxis.Scale, Linear
TestParameter, Output.Graph.YAxis.Bottom, -0.001
TestParameter, Output.Graph.YAxis.Top, 0.001
TestParameter, Output.Graph.YAxis.Group, 
TestParameter, Output.List.Data, V1, I1, V4, I4
TestParameter, AutoAnalysis.Interpolation, false
TestParameter, AutoAnalysis.Line1.Enabled, false
TestParameter, AutoAnalysis.Line1.Type, 1
TestParameter, AutoAnalysis.Line1.Fix, True
TestParameter, AutoAnalysis.Line1.YAxis, 0
TestParameter, AutoAnalysis.Line1.Point1.Type, 0
TestParameter, AutoAnalysis.Line1.Point1.XY.X, 
TestParameter, AutoAnalysis.Line1.Point1.XY.Y, 
TestParameter, AutoAnalysis.Line1.Point1.Data.Var, 
TestParameter, AutoAnalysis.Line1.Point1.Data.Condition, 
TestParameter, AutoAnalysis.Line1.Point1.Data.Start, false
TestParameter, AutoAnalysis.Line1.Point1.Data.StartVar, 
TestParameter, AutoAnalysis.Line1.Point1.Data.StartCondition, 
TestParameter, AutoAnalysis.Line1.Point2.Type, 0
TestParameter, AutoAnalysis.Line1.Point2.XY.X, 
TestParameter, AutoAnalysis.Line1.Point2.XY.Y, 
TestParameter, AutoAnalysis.Line1.Point2.Data.Var, 
TestParameter, AutoAnalysis.Line1.Point2.Data.Condition, 
TestParameter, AutoAnalysis.Line1.Point2.Data.Start, false
TestParameter, AutoAnalysis.Line1.Point2.Data.StartVar, 
TestParameter, AutoAnalysis.Line1.Point2.Data.StartCondition, 
TestParameter, AutoAnalysis.Line1.GradientExpr, 0
TestParameter, AutoAnalysis.Line2.Enabled, false
TestParameter, AutoAnalysis.Line2.Type, 1
TestParameter, AutoAnalysis.Line2.Fix, True
TestParameter, AutoAnalysis.Line2.YAxis, 0
TestParameter, AutoAnalysis.Line2.Point1.Type, 0
TestParameter, AutoAnalysis.Line2.Point1.XY.X, 
TestParameter, AutoAnalysis.Line2.Point1.XY.Y, 
TestParameter, AutoAnalysis.Line2.Point1.Data.Var, 
TestParameter, AutoAnalysis.Line2.Point1.Data.Condition, 
TestParameter, AutoAnalysis.Line2.Point1.Data.Start, false
TestParameter, AutoAnalysis.Line2.Point1.Data.StartVar, 
TestParameter, AutoAnalysis.Line2.Point1.Data.StartCondition, 
TestParameter, AutoAnalysis.Line2.Point2.Type, 0
TestParameter, AutoAnalysis.Line2.Point2.XY.X, 
TestParameter, AutoAnalysis.Line2.Point2.XY.Y, 
TestParameter, AutoAnalysis.Line2.Point2.Data.Var, 
TestParameter, AutoAnalysis.Line2.Point2.Data.Condition, 
TestParameter, AutoAnalysis.Line2.Point2.Data.Start, false
TestParameter, AutoAnalysis.Line2.Point2.Data.StartVar, 
TestParameter, AutoAnalysis.Line2.Point2.Data.StartCondition, 
TestParameter, AutoAnalysis.Line2.GradientExpr, 0
TestParameter, AutoAnalysis.Marker.Enabled, false
TestParameter, AutoAnalysis.Marker.Data.Var, 
TestParameter, AutoAnalysis.Marker.Data.Condition, 
TestParameter, AutoAnalysis.Marker.Data.Start, false
TestParameter, AutoAnalysis.Marker.Data.StartVar, 
TestParameter, AutoAnalysis.Marker.Data.StartCondition, 
MetaData, TestRecord.EntryPoint, true
MetaData, TestRecord.RecordTime, 03/04/2024 14:23:55
MetaData, TestRecord.TestTarget, 2306-1-C1-T414-R
MetaData, TestRecord.IterationIndex, 1
MetaData, TestRecord.Preservation, true
MetaData, TestRecord.Flag, 
MetaData, TestRecord.Remarks, 
MetaData, TestRecord.LinkKey, bb773f7a-b3c7-411b-b9c7-a43ca092db9e
Dimension1, 101, 101, 101, 101
Dimension2, 1, 1, 1, 1
DataName, V1, I1, V4, I4
DataValue, 0, -3.0099E-11, , 
DataValue, -0.1, -1.15775E-09, , 
DataValue, -0.2, -1.32637E-09, , 
DataValue, -0.3, -1.41263E-09, , 
DataValue, -0.4, -1.50981E-09, , 
DataValue, -0.5, -1.59411E-09, , 
DataValue, -0.6, -1.68197E-09, , 
DataValue, -0.70000000000000007, -1.77303E-09, , 
DataValue, -0.8, -1.85946E-09, , 
DataValue, -0.9, -1.95401E-09, , 
DataValue, -1, -2.05794E-09, , 
DataValue, -1.1, -2.16484E-09, , 
DataValue, -1.2, -2.2819299999999998E-09, , 
DataValue, -1.3, -2.40077E-09, , 
DataValue, -1.4000000000000001, -2.51975E-09, , 
DataValue, -1.5, -2.63121E-09, , 
DataValue, -1.6, -2.72474E-09, , 
DataValue, -1.7000000000000002, -2.80603E-09, , 
DataValue, -1.8, -2.88883E-09, , 
DataValue, -1.9000000000000001, -2.96521E-09, , 
DataValue, -2, -3.03868E-09, , 
DataValue, -2.1, -3.1146E-09, , 
DataValue, -2.2, -3.1803E-09, , 
DataValue, -2.3000000000000003, -3.25263E-09, , 
DataValue, -2.4, -3.32028E-09, , 
DataValue, -2.5, -3.38691E-09, , 
DataValue, -2.6, -3.4578E-09, , 
DataValue, -2.7, -3.52057E-09, , 
DataValue, -2.8000000000000003, -3.58842E-09, , 
DataValue, -2.9, -3.65434E-09, , 
DataValue, -3, -3.71857E-09, , 
DataValue, -3.1, -3.78543E-09, , 
DataValue, -3.2, -3.84586E-09, , 
DataValue, -3.3000000000000003, -3.91332E-09, , 
DataValue, -3.4, -3.97555E-09, , 
DataValue, -3.5, -4.03886E-09, , 
DataValue, -3.6, -4.10273E-09, , 
DataValue, -3.7, -4.16216E-09, , 
DataValue, -3.8000000000000003, -4.22837E-09, , 
DataValue, -3.9, -4.29048E-09, , 
DataValue, -4, -4.35395E-09, , 
DataValue, -4.1, -4.41849E-09, , 
DataValue, -4.2, -4.47816E-09, , 
DataValue, -4.3, -4.54663E-09, , 
DataValue, -4.4, -4.61279E-09, , 
DataValue, -4.5, -4.68038E-09, , 
DataValue, -4.6000000000000005, -4.751E-09, , 
DataValue, -4.7, -4.81594E-09, , 
DataValue, -4.8, -4.88536E-09, , 
DataValue, -4.9, -4.95389E-09, , 
DataValue, -5, -5.0212E-09, , 
DataValue, -5.1000000000000005, -5.08549E-09, , 
DataValue, -5.2, -5.14947E-09, , 
DataValue, -5.3, -5.21367E-09, , 
DataValue, -5.4, -5.2751099999999996E-09, , 
DataValue, -5.5, -5.33851E-09, , 
DataValue, -5.6000000000000005, -5.39983E-09, , 
DataValue, -5.7, -5.45994E-09, , 
DataValue, -5.8, -5.52206E-09, , 
DataValue, -5.9, -5.57993E-09, , 
DataValue, -6, -5.64117E-09, , 
DataValue, -6.1000000000000005, -5.70117E-09, , 
DataValue, -6.2, -5.75856E-09, , 
DataValue, -6.3, -5.8189E-09, , 
DataValue, -6.4, -5.87622E-09, , 
DataValue, -6.5, -5.93597E-09, , 
DataValue, -6.6000000000000005, -5.99361E-09, , 
DataValue, -6.7, -6.05259E-09, , 
DataValue, -6.8, -6.1097E-09, , 
DataValue, -6.9, -6.16913E-09, , 
DataValue, -7, -6.22997E-09, , 
DataValue, -7.1000000000000005, -6.28504E-09, , 
DataValue, -7.2, -6.34253E-09, , 
DataValue, -7.3, -6.39947E-09, , 
DataValue, -7.4, -6.45321E-09, , 
DataValue, -7.5, -6.51469E-09, , 
DataValue, -7.6000000000000005, -6.57108E-09, , 
DataValue, -7.7, -6.62795E-09, , 
DataValue, -7.8, -6.68683E-09, , 
DataValue, -7.9, -6.7407E-09, , 
DataValue, -8, -6.80093E-09, , 
DataValue, -8.1, -6.8563E-09, , 
DataValue, -8.2, -6.91038E-09, , 
DataValue, -8.3, -6.96782E-09, , 
DataValue, -8.4, -7.02206E-09, , 
DataValue, -8.5, -7.07954E-09, , 
DataValue, -8.6, -7.13334E-09, , 
DataValue, -8.7000000000000011, -7.19338E-09, , 
DataValue, -8.8, -7.24528E-09, , 
DataValue, -8.9, -7.30017E-09, , 
DataValue, -9, -7.35838E-09, , 
DataValue, -9.1, -7.4114E-09, , 
DataValue, -9.2000000000000011, -7.4675E-09, , 
DataValue, -9.3, -7.52211E-09, , 
DataValue, -9.4, -7.57574E-09, , 
DataValue, -9.5, -7.63157E-09, , 
DataValue, -9.6, -7.68468E-09, , 
DataValue, -9.7000000000000011, -7.7407E-09, , 
DataValue, -9.8, -7.7914E-09, , 
DataValue, -9.9, -7.84802E-09, , 
DataValue, -10, -7.90299E-09, , 