
SetupTitle, PN-R
PrimitiveTest, I/V Sweep
TestParameter, Context.MainFrame, 4156B
TestParameter, Channel.UnitType, SMU, SMU
TestParameter, Channel.Unit, SMU1:HR, SMU2:HR
TestParameter, Channel.IName, I1, I2
TestParameter, Channel.VName, V1, V2
TestParameter, Channel.Mode, V, V
TestParameter, Channel.Func, VAR1, CONST
TestParameter, Channel.Index, 
TestParameter, Channel.Time, 
TestParameter, Measurement.Port.Unit, SMU1:HR, SMU2:HR
TestParameter, Measurement.Port.SeriesResistor, NONE, NONE
TestParameter, Measurement.Port.Filter, ON, ON
TestParameter, Measurement.Primary.Locus, Single
TestParameter, Measurement.Primary.Scale, LINEAR
TestParameter, Measurement.Primary.Start, 0
TestParameter, Measurement.Primary.Stop, -10
TestParameter, Measurement.Primary.Step, -0.1
TestParameter, Measurement.Primary.Compliance, 0.0001
TestParameter, Measurement.Primary.PowerCompliance, 0.001
TestParameter, Measurement.Aborting.Condition, STOP AT ANY ABNORMAL
TestParameter, Measurement.PostOutput.Value, START
TestParameter, Measurement.PostOutput.Retention, OFF
TestParameter, Measurement.Bias.Source, 0, 0
TestParameter, Measurement.Bias.Compliance, 0.0001, 0.005
TestParameter, Measurement.Monitor.Unit, SMU1:HR, SMU2:HR
TestParameter, Measurement.Monitor.Adc, HR ADC, HR ADC
TestParameter, Measurement.Monitor.RangingMode, LIMITED, LIMITED
TestParameter, Measurement.Monitor.RangeBoundary, 1nA, 1nA
TestParameter, Measurement.Monitor.RangeRating, BY FULL RANGE, BY FULL RANGE
TestParameter, Measurement.Monitor.RangeRatingCoeff, 50, 50
TestParameter, Measurement.Timing.Hold, 1
TestParameter, Measurement.Timing.Delay, 0.1
TestParameter, Measurement.Adc.HighResolution.AutoZero, OFF
TestParameter, Measurement.Adc.HighResolution.Mode, AUTO
TestParameter, Measurement.Adc.HighResolution.Coeff, 1
TestParameter, Measurement.Ag16440ASelector.SemiconductorRelay.Channel1, DEFAULT
TestParameter, Measurement.Ag16440ASelector.SemiconductorRelay.Channel3, DEFAULT
TestParameter, Output.Graph.Enabled, true
TestParameter, Output.Graph.XAxis.Data, V1
TestParameter, Output.Graph.XAxis.Scale, Linear
TestParameter, Output.Graph.XAxis.Left, 0
TestParameter, Output.Graph.XAxis.Right, 5
TestParameter, Output.Graph.YAxis.Data, I1
TestParameter, Output.Graph.YAxis.Scale, Linear
TestParameter, Output.Graph.YAxis.Bottom, -0.001
TestParameter, Output.Graph.YAxis.Top, 0.001
TestParameter, Output.Graph.YAxis.Group, 
TestParameter, Output.List.Data, V1, I1, V4, I4
TestParameter, AutoAnalysis.Interpolation, false
TestParameter, AutoAnalysis.Line1.Enabled, false
TestParameter, AutoAnalysis.Line1.Type, 1
TestParameter, AutoAnalysis.Line1.Fix, True
TestParameter, AutoAnalysis.Line1.YAxis, 0
TestParameter, AutoAnalysis.Line1.Point1.Type, 0
TestParameter, AutoAnalysis.Line1.Point1.XY.X, 
TestParameter, AutoAnalysis.Line1.Point1.XY.Y, 
TestParameter, AutoAnalysis.Line1.Point1.Data.Var, 
TestParameter, AutoAnalysis.Line1.Point1.Data.Condition, 
TestParameter, AutoAnalysis.Line1.Point1.Data.Start, false
TestParameter, AutoAnalysis.Line1.Point1.Data.StartVar, 
TestParameter, AutoAnalysis.Line1.Point1.Data.StartCondition, 
TestParameter, AutoAnalysis.Line1.Point2.Type, 0
TestParameter, AutoAnalysis.Line1.Point2.XY.X, 
TestParameter, AutoAnalysis.Line1.Point2.XY.Y, 
TestParameter, AutoAnalysis.Line1.Point2.Data.Var, 
TestParameter, AutoAnalysis.Line1.Point2.Data.Condition, 
TestParameter, AutoAnalysis.Line1.Point2.Data.Start, false
TestParameter, AutoAnalysis.Line1.Point2.Data.StartVar, 
TestParameter, AutoAnalysis.Line1.Point2.Data.StartCondition, 
TestParameter, AutoAnalysis.Line1.GradientExpr, 0
TestParameter, AutoAnalysis.Line2.Enabled, false
TestParameter, AutoAnalysis.Line2.Type, 1
TestParameter, AutoAnalysis.Line2.Fix, True
TestParameter, AutoAnalysis.Line2.YAxis, 0
TestParameter, AutoAnalysis.Line2.Point1.Type, 0
TestParameter, AutoAnalysis.Line2.Point1.XY.X, 
TestParameter, AutoAnalysis.Line2.Point1.XY.Y, 
TestParameter, AutoAnalysis.Line2.Point1.Data.Var, 
TestParameter, AutoAnalysis.Line2.Point1.Data.Condition, 
TestParameter, AutoAnalysis.Line2.Point1.Data.Start, false
TestParameter, AutoAnalysis.Line2.Point1.Data.StartVar, 
TestParameter, AutoAnalysis.Line2.Point1.Data.StartCondition, 
TestParameter, AutoAnalysis.Line2.Point2.Type, 0
TestParameter, AutoAnalysis.Line2.Point2.XY.X, 
TestParameter, AutoAnalysis.Line2.Point2.XY.Y, 
TestParameter, AutoAnalysis.Line2.Point2.Data.Var, 
TestParameter, AutoAnalysis.Line2.Point2.Data.Condition, 
TestParameter, AutoAnalysis.Line2.Point2.Data.Start, false
TestParameter, AutoAnalysis.Line2.Point2.Data.StartVar, 
TestParameter, AutoAnalysis.Line2.Point2.Data.StartCondition, 
TestParameter, AutoAnalysis.Line2.GradientExpr, 0
TestParameter, AutoAnalysis.Marker.Enabled, false
TestParameter, AutoAnalysis.Marker.Data.Var, 
TestParameter, AutoAnalysis.Marker.Data.Condition, 
TestParameter, AutoAnalysis.Marker.Data.Start, false
TestParameter, AutoAnalysis.Marker.Data.StartVar, 
TestParameter, AutoAnalysis.Marker.Data.StartCondition, 
MetaData, TestRecord.EntryPoint, true
MetaData, TestRecord.RecordTime, 03/04/2024 16:44:20
MetaData, TestRecord.TestTarget, 2306-1-C1-T514-R
MetaData, TestRecord.IterationIndex, 1
MetaData, TestRecord.Preservation, true
MetaData, TestRecord.Flag, 
MetaData, TestRecord.Remarks, 
MetaData, TestRecord.LinkKey, f0e6b072-e65b-45cb-8b27-afe032e8416f
Dimension1, 101, 101, 101, 101
Dimension2, 1, 1, 1, 1
DataName, V1, I1, V4, I4
DataValue, 0, -8.976E-12, , 
DataValue, -0.1, -1.64825E-09, , 
DataValue, -0.2, -3.1649E-09, , 
DataValue, -0.3, -4.96288E-09, , 
DataValue, -0.4, -6.79018E-09, , 
DataValue, -0.5, -1.06061E-08, , 
DataValue, -0.6, -1.5998599999999998E-08, , 
DataValue, -0.70000000000000007, -2.1931699999999998E-08, , 
DataValue, -0.8, -2.76197E-08, , 
DataValue, -0.9, -3.38329E-08, , 
DataValue, -1, -4.0970099999999994E-08, , 
DataValue, -1.1, -4.60708E-08, , 
DataValue, -1.2, -5.1301E-08, , 
DataValue, -1.3, -6.09933E-08, , 
DataValue, -1.4000000000000001, -6.2246999999999988E-08, , 
DataValue, -1.5, -6.60563E-08, , 
DataValue, -1.6, -8.65317E-08, , 
DataValue, -1.7000000000000002, -9.1877399999999991E-08, , 
DataValue, -1.8, -1.2286799999999999E-07, , 
DataValue, -1.9000000000000001, -1.35724E-07, , 
DataValue, -2, -1.36495E-07, , 
DataValue, -2.1, -1.55956E-07, , 
DataValue, -2.2, -1.62326E-07, , 
DataValue, -2.3000000000000003, -1.7011399999999998E-07, , 
DataValue, -2.4, -1.72243E-07, , 
DataValue, -2.5, -1.95335E-07, , 
DataValue, -2.6, -1.9806E-07, , 
DataValue, -2.7, -2.0648299999999998E-07, , 
DataValue, -2.8000000000000003, -2.31582E-07, , 
DataValue, -2.9, -2.53527E-07, , 
DataValue, -3, -2.53076E-07, , 
DataValue, -3.1, -2.55363E-07, , 
DataValue, -3.2, -2.75716E-07, , 
DataValue, -3.3000000000000003, -3.11049E-07, , 
DataValue, -3.4, -3.24334E-07, , 
DataValue, -3.5, -3.00158E-07, , 
DataValue, -3.6, -3.09824E-07, , 
DataValue, -3.7, -3.19543E-07, , 
DataValue, -3.8000000000000003, -3.59014E-07, , 
DataValue, -3.9, -3.67727E-07, , 
DataValue, -4, -4.05422E-07, , 
DataValue, -4.1, -4.4488E-07, , 
DataValue, -4.2, -4.55995E-07, , 
DataValue, -4.3, -4.89997E-07, , 
DataValue, -4.4, -5.12364E-07, , 
DataValue, -4.5, -5.2981E-07, , 
DataValue, -4.6000000000000005, -4.94523E-07, , 
DataValue, -4.7, -5.62719E-07, , 
DataValue, -4.8, -5.62042E-07, , 
DataValue, -4.9, -6.1698699999999994E-07, , 
DataValue, -5, -6.70545E-07, , 
DataValue, -5.1000000000000005, -6.76163E-07, , 
DataValue, -5.2, -1.20371E-06, , 
DataValue, -5.3, -1.8671100000000002E-06, , 
DataValue, -5.4, -1.8068000000000002E-06, , 
DataValue, -5.5, -2.96487E-06, , 
DataValue, -5.6000000000000005, -4.18789E-06, , 
DataValue, -5.7, -3.83773E-06, , 
DataValue, -5.8, -4.38174E-06, , 
DataValue, -5.9, -8.6234500000000009E-05, , 
DataValue, -6, -9.1951E-05, , 
DataValue, -6.1000000000000005, -9.34817E-05, , 
DataValue, -6.2, -9.4306100000000008E-05, , 
DataValue, -6.3, -9.50055E-05, , 
DataValue, -6.4, -9.843570000000001E-05, , 
DataValue, -6.5, -9.99971E-05, , 
DataValue, -6.6000000000000005, , , 