
SetupTitle, PN-R
PrimitiveTest, I/V Sweep
TestParameter, Context.MainFrame, 4156B
TestParameter, Channel.UnitType, SMU, SMU
TestParameter, Channel.Unit, SMU1:HR, SMU2:HR
TestParameter, Channel.IName, I1, I2
TestParameter, Channel.VName, V1, V2
TestParameter, Channel.Mode, V, V
TestParameter, Channel.Func, VAR1, CONST
TestParameter, Channel.Index, 
TestParameter, Channel.Time, 
TestParameter, Measurement.Port.Unit, SMU1:HR, SMU2:HR
TestParameter, Measurement.Port.SeriesResistor, NONE, NONE
TestParameter, Measurement.Port.Filter, ON, ON
TestParameter, Measurement.Primary.Locus, Single
TestParameter, Measurement.Primary.Scale, LINEAR
TestParameter, Measurement.Primary.Start, 0
TestParameter, Measurement.Primary.Stop, -10
TestParameter, Measurement.Primary.Step, -0.1
TestParameter, Measurement.Primary.Compliance, 0.0001
TestParameter, Measurement.Primary.PowerCompliance, 0.001
TestParameter, Measurement.Aborting.Condition, STOP AT ANY ABNORMAL
TestParameter, Measurement.PostOutput.Value, START
TestParameter, Measurement.PostOutput.Retention, OFF
TestParameter, Measurement.Bias.Source, 0, 0
TestParameter, Measurement.Bias.Compliance, 0.0001, 0.005
TestParameter, Measurement.Monitor.Unit, SMU1:HR, SMU2:HR
TestParameter, Measurement.Monitor.Adc, HR ADC, HR ADC
TestParameter, Measurement.Monitor.RangingMode, LIMITED, LIMITED
TestParameter, Measurement.Monitor.RangeBoundary, 1nA, 1nA
TestParameter, Measurement.Monitor.RangeRating, BY FULL RANGE, BY FULL RANGE
TestParameter, Measurement.Monitor.RangeRatingCoeff, 50, 50
TestParameter, Measurement.Timing.Hold, 1
TestParameter, Measurement.Timing.Delay, 0.1
TestParameter, Measurement.Adc.HighResolution.AutoZero, OFF
TestParameter, Measurement.Adc.HighResolution.Mode, AUTO
TestParameter, Measurement.Adc.HighResolution.Coeff, 1
TestParameter, Measurement.Ag16440ASelector.SemiconductorRelay.Channel1, DEFAULT
TestParameter, Measurement.Ag16440ASelector.SemiconductorRelay.Channel3, DEFAULT
TestParameter, Output.Graph.Enabled, true
TestParameter, Output.Graph.XAxis.Data, V1
TestParameter, Output.Graph.XAxis.Scale, Linear
TestParameter, Output.Graph.XAxis.Left, 0
TestParameter, Output.Graph.XAxis.Right, 5
TestParameter, Output.Graph.YAxis.Data, I1
TestParameter, Output.Graph.YAxis.Scale, Linear
TestParameter, Output.Graph.YAxis.Bottom, -0.001
TestParameter, Output.Graph.YAxis.Top, 0.001
TestParameter, Output.Graph.YAxis.Group, 
TestParameter, Output.List.Data, V1, I1, V4, I4
TestParameter, AutoAnalysis.Interpolation, false
TestParameter, AutoAnalysis.Line1.Enabled, false
TestParameter, AutoAnalysis.Line1.Type, 1
TestParameter, AutoAnalysis.Line1.Fix, True
TestParameter, AutoAnalysis.Line1.YAxis, 0
TestParameter, AutoAnalysis.Line1.Point1.Type, 0
TestParameter, AutoAnalysis.Line1.Point1.XY.X, 
TestParameter, AutoAnalysis.Line1.Point1.XY.Y, 
TestParameter, AutoAnalysis.Line1.Point1.Data.Var, 
TestParameter, AutoAnalysis.Line1.Point1.Data.Condition, 
TestParameter, AutoAnalysis.Line1.Point1.Data.Start, false
TestParameter, AutoAnalysis.Line1.Point1.Data.StartVar, 
TestParameter, AutoAnalysis.Line1.Point1.Data.StartCondition, 
TestParameter, AutoAnalysis.Line1.Point2.Type, 0
TestParameter, AutoAnalysis.Line1.Point2.XY.X, 
TestParameter, AutoAnalysis.Line1.Point2.XY.Y, 
TestParameter, AutoAnalysis.Line1.Point2.Data.Var, 
TestParameter, AutoAnalysis.Line1.Point2.Data.Condition, 
TestParameter, AutoAnalysis.Line1.Point2.Data.Start, false
TestParameter, AutoAnalysis.Line1.Point2.Data.StartVar, 
TestParameter, AutoAnalysis.Line1.Point2.Data.StartCondition, 
TestParameter, AutoAnalysis.Line1.GradientExpr, 0
TestParameter, AutoAnalysis.Line2.Enabled, false
TestParameter, AutoAnalysis.Line2.Type, 1
TestParameter, AutoAnalysis.Line2.Fix, True
TestParameter, AutoAnalysis.Line2.YAxis, 0
TestParameter, AutoAnalysis.Line2.Point1.Type, 0
TestParameter, AutoAnalysis.Line2.Point1.XY.X, 
TestParameter, AutoAnalysis.Line2.Point1.XY.Y, 
TestParameter, AutoAnalysis.Line2.Point1.Data.Var, 
TestParameter, AutoAnalysis.Line2.Point1.Data.Condition, 
TestParameter, AutoAnalysis.Line2.Point1.Data.Start, false
TestParameter, AutoAnalysis.Line2.Point1.Data.StartVar, 
TestParameter, AutoAnalysis.Line2.Point1.Data.StartCondition, 
TestParameter, AutoAnalysis.Line2.Point2.Type, 0
TestParameter, AutoAnalysis.Line2.Point2.XY.X, 
TestParameter, AutoAnalysis.Line2.Point2.XY.Y, 
TestParameter, AutoAnalysis.Line2.Point2.Data.Var, 
TestParameter, AutoAnalysis.Line2.Point2.Data.Condition, 
TestParameter, AutoAnalysis.Line2.Point2.Data.Start, false
TestParameter, AutoAnalysis.Line2.Point2.Data.StartVar, 
TestParameter, AutoAnalysis.Line2.Point2.Data.StartCondition, 
TestParameter, AutoAnalysis.Line2.GradientExpr, 0
TestParameter, AutoAnalysis.Marker.Enabled, false
TestParameter, AutoAnalysis.Marker.Data.Var, 
TestParameter, AutoAnalysis.Marker.Data.Condition, 
TestParameter, AutoAnalysis.Marker.Data.Start, false
TestParameter, AutoAnalysis.Marker.Data.StartVar, 
TestParameter, AutoAnalysis.Marker.Data.StartCondition, 
MetaData, TestRecord.EntryPoint, true
MetaData, TestRecord.RecordTime, 03/04/2024 14:01:51
MetaData, TestRecord.TestTarget, 2306-1-C1-T402-R
MetaData, TestRecord.IterationIndex, 1
MetaData, TestRecord.Preservation, true
MetaData, TestRecord.Flag, 
MetaData, TestRecord.Remarks, 
MetaData, TestRecord.LinkKey, af0d1122-7a6e-4ce0-89d9-6824ed59244f
Dimension1, 101, 101, 101, 101
Dimension2, 1, 1, 1, 1
DataName, V1, I1, V4, I4
DataValue, 0, 7.1847E-11, , 
DataValue, -0.1, -4.5573800000000006E-10, , 
DataValue, -0.2, -6.4947500000000008E-10, , 
DataValue, -0.3, -8.0573E-10, , 
DataValue, -0.4, -9.2868E-10, , 
DataValue, -0.5, -1.09718E-09, , 
DataValue, -0.6, -1.21235E-09, , 
DataValue, -0.70000000000000007, -1.3431E-09, , 
DataValue, -0.8, -1.46441E-09, , 
DataValue, -0.9, -1.58593E-09, , 
DataValue, -1, -1.7282E-09, , 
DataValue, -1.1, -1.8623999999999999E-09, , 
DataValue, -1.2, -1.96186E-09, , 
DataValue, -1.3, -2.05336E-09, , 
DataValue, -1.4000000000000001, -2.15116E-09, , 
DataValue, -1.5, -2.22527E-09, , 
DataValue, -1.6, -2.26957E-09, , 
DataValue, -1.7000000000000002, -2.3247E-09, , 
DataValue, -1.8, -2.37573E-09, , 
DataValue, -1.9000000000000001, -2.43608E-09, , 
DataValue, -2, -2.51691E-09, , 
DataValue, -2.1, -2.59565E-09, , 
DataValue, -2.2, -2.66961E-09, , 
DataValue, -2.3000000000000003, -2.72708E-09, , 
DataValue, -2.4, -2.77972E-09, , 
DataValue, -2.5, -2.83073E-09, , 
DataValue, -2.6, -2.87851E-09, , 
DataValue, -2.7, -2.92796E-09, , 
DataValue, -2.8000000000000003, -2.97335E-09, , 
DataValue, -2.9, -3.01958E-09, , 
DataValue, -3, -3.06514E-09, , 
DataValue, -3.1, -3.10781E-09, , 
DataValue, -3.2, -3.1535E-09, , 
DataValue, -3.3000000000000003, -3.19505E-09, , 
DataValue, -3.4, -3.23692E-09, , 
DataValue, -3.5, -3.27965E-09, , 
DataValue, -3.6, -3.31997E-09, , 
DataValue, -3.7, -3.363E-09, , 
DataValue, -3.8000000000000003, -3.40298E-09, , 
DataValue, -3.9, -3.4424E-09, , 
DataValue, -4, -3.48338E-09, , 
DataValue, -4.1, -3.52128E-09, , 
DataValue, -4.2, -3.56158E-09, , 
DataValue, -4.3, -3.59969E-09, , 
DataValue, -4.4, -3.63769E-09, , 
DataValue, -4.5, -3.67714E-09, , 
DataValue, -4.6000000000000005, -3.71423E-09, , 
DataValue, -4.7, -3.75319E-09, , 
DataValue, -4.8, -3.78955E-09, , 
DataValue, -4.9, -3.82649E-09, , 
DataValue, -5, -3.86499E-09, , 
DataValue, -5.1000000000000005, -3.90064E-09, , 
DataValue, -5.2, -3.93756E-09, , 
DataValue, -5.3, -3.97301E-09, , 
DataValue, -5.4, -4.00782E-09, , 
DataValue, -5.5, -4.04599E-09, , 
DataValue, -5.6000000000000005, -4.08029E-09, , 
DataValue, -5.7, -4.11566E-09, , 
DataValue, -5.8, -4.15109E-09, , 
DataValue, -5.9, -4.18421E-09, , 
DataValue, -6, -4.22214E-09, , 
DataValue, -6.1000000000000005, -4.25569E-09, , 
DataValue, -6.2, -4.29037E-09, , 
DataValue, -6.3, -4.32409E-09, , 
DataValue, -6.4, -4.35806E-09, , 
DataValue, -6.5, -4.39521E-09, , 
DataValue, -6.6000000000000005, -4.4271E-09, , 
DataValue, -6.7, -4.46055E-09, , 
DataValue, -6.8, -4.49442E-09, , 
DataValue, -6.9, -4.52652E-09, , 
DataValue, -7, -4.5636E-09, , 
DataValue, -7.1000000000000005, -4.59385E-09, , 
DataValue, -7.2, -4.62679E-09, , 
DataValue, -7.3, -4.65997E-09, , 
DataValue, -7.4, -4.69219E-09, , 
DataValue, -7.5, -4.72782E-09, , 
DataValue, -7.6000000000000005, -4.75859E-09, , 
DataValue, -7.7, -4.78994E-09, , 
DataValue, -7.8, -4.82244E-09, , 
DataValue, -7.9, -4.85438E-09, , 
DataValue, -8, -4.89018E-09, , 
DataValue, -8.1, -4.91926E-09, , 
DataValue, -8.2, -4.95142E-09, , 
DataValue, -8.3, -4.98325E-09, , 
DataValue, -8.4, -5.01463E-09, , 
DataValue, -8.5, -5.04956E-09, , 
DataValue, -8.6, -5.07778E-09, , 
DataValue, -8.7000000000000011, -5.10979E-09, , 
DataValue, -8.8, -5.14092E-09, , 
DataValue, -8.9, -5.17151E-09, , 
DataValue, -9, -5.20664E-09, , 
DataValue, -9.1, -5.23514E-09, , 
DataValue, -9.2000000000000011, -5.26626E-09, , 
DataValue, -9.3, -5.29774E-09, , 
DataValue, -9.4, -5.32834E-09, , 
DataValue, -9.5, -5.361E-09, , 
DataValue, -9.6, -5.39013E-09, , 
DataValue, -9.7000000000000011, -5.42072E-09, , 
DataValue, -9.8, -5.45207E-09, , 
DataValue, -9.9, -5.48207E-09, , 
DataValue, -10, -5.51531E-09, , 